time	V(cap)	V(logic)	V(signal_in)	V(signal_out)
0.000000000000000e+000	0.000000e+000	0.000000e+000	0.000000e+000	0.000000e+000
1.000000000000000e-012	6.174558e-018	1.000000e+000	2.607522e-007	1.163862e-016
7.445314903051040e-010	-3.886651e-008	1.000000e+000	1.941382e-004	-6.252574e-007
1.488062980610208e-009	1.097491e-009	1.000000e+000	3.880157e-004	1.002919e-007
2.231594470915312e-009	1.198920e-007	1.000000e+000	5.818932e-004	2.176648e-006
2.975125961220416e-009	3.175170e-007	1.000000e+000	7.757706e-004	5.603810e-006
3.718657451525520e-009	5.939726e-007	1.000000e+000	9.696481e-004	1.038178e-005
4.462188941830624e-009	9.492586e-007	1.000000e+000	1.163526e-003	1.651056e-005
5.205720432135726e-009	1.383375e-006	1.000000e+000	1.357403e-003	2.399014e-005
6.584959332825269e-009	2.794814e-006	1.000000e+000	1.717043e-003	4.742818e-005
8.370955023067695e-009	5.723702e-006	1.000000e+000	2.182745e-003	9.445936e-005
1.071853201716566e-008	1.177325e-005	1.000000e+000	2.794881e-003	1.878514e-004
1.336374938599190e-008	2.247493e-005	1.000000e+000	3.484627e-003	3.449009e-004
1.698865354942678e-008	4.520528e-005	1.000000e+000	4.429828e-003	6.583694e-004
2.149895125099294e-008	8.898885e-005	1.000000e+000	5.605897e-003	1.214343e-003
2.782240933109792e-008	1.839062e-004	1.000000e+000	7.254751e-003	2.294099e-003
3.655236774002857e-008	3.820095e-004	1.000000e+000	9.531103e-003	4.244612e-003
4.811550190098941e-008	7.584467e-004	1.000000e+000	1.254621e-002	7.353583e-003
6.128807263073300e-008	1.335868e-003	1.000000e+000	1.598097e-002	1.121816e-002
7.673794104783803e-008	2.198263e-003	1.000000e+000	2.000953e-002	1.573087e-002
9.662194100000516e-008	3.579649e-003	1.000000e+000	2.519426e-002	2.117594e-002
1.309756227658930e-007	6.486863e-003	1.000000e+000	3.415189e-002	3.007557e-002
1.653454107360314e-007	1.005673e-002	1.000000e+000	4.311359e-002	3.893470e-002
2.225016468380713e-007	1.747745e-002	1.000000e+000	5.801624e-002	5.383801e-002
3.259156244512943e-007	3.387669e-002	1.000000e+000	8.497838e-002	8.082853e-002
4.478855332504216e-007	5.691479e-002	1.000000e+000	1.167747e-001	1.126182e-001
6.257390241371639e-007	9.540547e-002	1.000000e+000	1.631294e-001	1.589789e-001
8.472242196211614e-007	1.477018e-001	1.000000e+000	2.208359e-001	2.166865e-001
1.081599219621161e-006	2.059619e-001	1.000000e+000	2.818693e-001	2.777230e-001
1.315974219621161e-006	2.657389e-001	1.000000e+000	3.428611e-001	3.387172e-001
1.784724219621161e-006	3.868907e-001	1.000000e+000	4.646818e-001	4.605452e-001
2.722224219621162e-006	6.313526e-001	1.000000e+000	7.088330e-001	7.047180e-001
3.659724219621162e-006	8.729019e-001	1.000000e+000	9.498720e-001	9.457883e-001
4.597224219621162e-006	1.111539e+000	1.000000e+000	1.187799e+000	1.183756e+000
5.534724219621163e-006	1.347263e+000	1.000000e+000	1.422614e+000	1.418621e+000
6.472224219621164e-006	1.580074e+000	1.000000e+000	1.654316e+000	1.650384e+000
7.409724219621163e-006	1.809973e+000	1.000000e+000	1.882907e+000	1.879044e+000
8.347224219621162e-006	2.036959e+000	1.000000e+000	2.108385e+000	2.104601e+000
9.954367076764023e-006	2.417712e+000	1.000000e+000	2.486148e+000	2.482523e+000
1.156150993390689e-005	2.775682e+000	1.000000e+000	2.840714e+000	2.837272e+000
1.316865279104975e-005	3.110868e+000	1.000000e+000	3.172086e+000	3.168847e+000
1.477579564819261e-005	3.423271e+000	1.000000e+000	3.480262e+000	3.477248e+000
1.638293850533547e-005	3.712890e+000	1.000000e+000	3.765242e+000	3.762475e+000
1.799008136247834e-005	3.979726e+000	1.000000e+000	4.027027e+000	4.024529e+000
1.959722421962119e-005	4.223779e+000	1.000000e+000	4.265616e+000	4.263409e+000
2.036904947396102e-005	4.328294e+000	1.000000e+000	4.367426e+000	4.365362e+000
2.114087472830085e-005	4.425456e+000	1.000000e+000	4.461831e+000	4.459914e+000
2.191269998264068e-005	4.515265e+000	1.000000e+000	4.548831e+000	4.547064e+000
2.268452523698051e-005	4.597721e+000	1.000000e+000	4.628427e+000	4.626812e+000
2.345635049132034e-005	4.672825e+000	1.000000e+000	4.700618e+000	4.699158e+000
2.422817574566017e-005	4.740576e+000	1.000000e+000	4.765405e+000	4.764102e+000
2.500000100000000e-005	4.800974e+000	1.000000e+000	4.822787e+000	4.821644e+000
2.500000110000000e-005	4.800974e+000	9.000000e-001	4.822787e+000	4.821644e+000
2.500000130000000e-005	4.800974e+000	7.000000e-001	4.822787e+000	4.821644e+000
2.500000170000000e-005	4.800974e+000	3.000000e-001	4.822787e+000	4.821644e+000
2.500000200000000e-005	4.800974e+000	0.000000e+000	4.822787e+000	4.821643e+000
2.500000208000000e-005	4.800974e+000	0.000000e+000	4.822787e+000	4.821643e+000
2.500000224000000e-005	4.800974e+000	0.000000e+000	4.822787e+000	4.821643e+000
2.500000256000000e-005	4.800974e+000	0.000000e+000	4.822787e+000	4.821643e+000
2.500000320000000e-005	4.800974e+000	0.000000e+000	4.822787e+000	4.821642e+000
2.500000448000000e-005	4.800974e+000	0.000000e+000	4.822787e+000	4.821640e+000
2.500000704000000e-005	4.800974e+000	0.000000e+000	4.822788e+000	4.821637e+000
2.500001215999999e-005	4.800974e+000	0.000000e+000	4.822788e+000	4.821630e+000
2.500002239999999e-005	4.800974e+000	0.000000e+000	4.822789e+000	4.821617e+000
2.500004287999997e-005	4.800974e+000	0.000000e+000	4.822790e+000	4.821590e+000
2.500008383999995e-005	4.800974e+000	0.000000e+000	4.822793e+000	4.821537e+000
2.500016575999990e-005	4.800974e+000	0.000000e+000	4.822799e+000	4.821432e+000
2.500032959999980e-005	4.800974e+000	0.000000e+000	4.822810e+000	4.821222e+000
2.500065727999960e-005	4.800974e+000	0.000000e+000	4.822832e+000	4.820812e+000
2.500131263999920e-005	4.800974e+000	0.000000e+000	4.822877e+000	4.820022e+000
2.500262335999841e-005	4.800974e+000	0.000000e+000	4.822968e+000	4.818554e+000
2.501048767999363e-005	4.800974e+000	0.000000e+000	4.823508e+000	4.812135e+000
2.502097343998726e-005	4.800974e+000	0.000000e+000	4.824226e+000	4.807373e+000
2.504194495997451e-005	4.800976e+000	0.000000e+000	4.825659e+000	4.803266e+000
2.508388799994903e-005	4.800981e+000	0.000000e+000	4.828501e+000	4.801270e+000
2.516777407989805e-005	4.801003e+000	0.000000e+000	4.834100e+000	4.801001e+000
2.533554623979610e-005	4.801070e+000	0.000000e+000	4.845049e+000	4.801152e+000
2.549097646527095e-005	4.801148e+000	0.000000e+000	4.854864e+000	4.801250e+000
2.572535146527095e-005	4.801278e+000	0.000000e+000	4.869058e+000	4.801390e+000
2.595116302922125e-005	4.801407e+000	0.000000e+000	4.882098e+000	4.801524e+000
2.618553802922125e-005	4.801546e+000	0.000000e+000	4.894909e+000	4.801667e+000
2.641991302922125e-005	4.801687e+000	0.000000e+000	4.906996e+000	4.801813e+000
2.665428802922125e-005	4.801832e+000	0.000000e+000	4.918350e+000	4.801962e+000
2.688866302922125e-005	4.801981e+000	0.000000e+000	4.928969e+000	4.802114e+000
2.712303802922125e-005	4.802132e+000	0.000000e+000	4.938851e+000	4.802269e+000
2.735741302922125e-005	4.802286e+000	0.000000e+000	4.947996e+000	4.802426e+000
2.759178802922125e-005	4.802443e+000	0.000000e+000	4.956402e+000	4.802585e+000
2.806053802922126e-005	4.802761e+000	0.000000e+000	4.970991e+000	4.802909e+000
2.852928802922126e-005	4.803087e+000	0.000000e+000	4.982609e+000	4.803238e+000
2.899803802922126e-005	4.803418e+000	0.000000e+000	4.991250e+000	4.803572e+000
2.946678802922126e-005	4.803753e+000	0.000000e+000	4.996908e+000	4.803909e+000
2.993553802922126e-005	4.804090e+000	0.000000e+000	4.999580e+000	4.804247e+000
3.040428802922126e-005	4.804428e+000	0.000000e+000	4.999266e+000	4.804584e+000
3.087303802922126e-005	4.804764e+000	0.000000e+000	4.995963e+000	4.804919e+000
3.134178802922125e-005	4.805098e+000	0.000000e+000	4.989676e+000	4.805251e+000
3.157616302922125e-005	4.805263e+000	0.000000e+000	4.985414e+000	4.805415e+000
3.181053802922125e-005	4.805427e+000	0.000000e+000	4.980406e+000	4.805577e+000
3.204491302922125e-005	4.805590e+000	0.000000e+000	4.974655e+000	4.805738e+000
3.227928802922124e-005	4.805751e+000	0.000000e+000	4.968161e+000	4.805897e+000
3.251366302922124e-005	4.805910e+000	0.000000e+000	4.960924e+000	4.806054e+000
3.274803802922124e-005	4.806067e+000	0.000000e+000	4.952947e+000	4.806208e+000
3.298241302922123e-005	4.806221e+000	0.000000e+000	4.944229e+000	4.806359e+000
3.321678802922123e-005	4.806374e+000	0.000000e+000	4.934772e+000	4.806508e+000
3.345116302922123e-005	4.806522e+000	0.000000e+000	4.924579e+000	4.806654e+000
3.368553802922123e-005	4.806669e+000	0.000000e+000	4.913650e+000	4.806797e+000
3.391991302922122e-005	4.806812e+000	0.000000e+000	4.901987e+000	4.806935e+000
3.415428802922122e-005	4.806951e+000	0.000000e+000	4.889591e+000	4.807070e+000
3.438866302922122e-005	4.807086e+000	0.000000e+000	4.876465e+000	4.807200e+000
3.462303802922122e-005	4.807218e+000	0.000000e+000	4.862611e+000	4.807326e+000
3.485741302922121e-005	4.807343e+000	0.000000e+000	4.848030e+000	4.807446e+000
3.509178802922121e-005	4.807464e+000	0.000000e+000	4.832725e+000	4.807558e+000
3.532616302922121e-005	4.807575e+000	0.000000e+000	4.816698e+000	4.807657e+000
3.556053802922120e-005	4.807669e+000	0.000000e+000	4.799951e+000	4.807720e+000
3.579491302922120e-005	4.807717e+000	0.000000e+000	4.782487e+000	4.807696e+000
3.602928802922120e-005	4.807694e+000	0.000000e+000	4.764349e+000	4.807566e+000
3.621030614649059e-005	4.807624e+000	0.000000e+000	4.749841e+000	4.807434e+000
3.641093893462611e-005	4.807515e+000	0.000000e+000	4.733231e+000	4.807305e+000
3.661382623705184e-005	4.807396e+000	0.000000e+000	4.715915e+000	4.807180e+000
3.682468200450311e-005	4.807269e+000	0.000000e+000	4.697345e+000	4.807046e+000
3.705905700450311e-005	4.807121e+000	0.000000e+000	4.676044e+000	4.806890e+000
3.729343200450310e-005	4.806967e+000	0.000000e+000	4.654061e+000	4.806729e+000
3.752780700450310e-005	4.806808e+000	0.000000e+000	4.631383e+000	4.806562e+000
3.776218200450310e-005	4.806642e+000	0.000000e+000	4.608013e+000	4.806389e+000
3.799655700450310e-005	4.806469e+000	0.000000e+000	4.583955e+000	4.806209e+000
3.823093200450309e-005	4.806291e+000	0.000000e+000	4.559212e+000	4.806023e+000
3.869968200450309e-005	4.805914e+000	0.000000e+000	4.507687e+000	4.805630e+000
3.916843200450308e-005	4.805511e+000	0.000000e+000	4.453468e+000	4.805210e+000
3.987155700450307e-005	4.804853e+000	0.000000e+000	4.367160e+000	4.804527e+000
4.057468200450307e-005	4.804130e+000	0.000000e+000	4.274981e+000	4.803776e+000
4.167959271878877e-005	4.802883e+000	0.000000e+000	4.116993e+000	4.802484e+000
4.278450343307447e-005	4.801419e+000	0.000000e+000	3.946870e+000	4.800970e+000
4.388941414736017e-005	4.799737e+000	0.000000e+000	3.764612e+000	4.799235e+000
4.499432486164587e-005	4.797836e+000	0.000000e+000	3.570219e+000	4.797279e+000
4.609923557593157e-005	4.795718e+000	0.000000e+000	3.363692e+000	4.795101e+000
4.720414629021728e-005	4.793381e+000	0.000000e+000	3.145030e+000	4.792702e+000
4.830905700450297e-005	4.790826e+000	0.000000e+000	2.914233e+000	4.790082e+000
4.976562500000001e-005	4.787023e+000	0.000000e+000	2.597610e+000	4.786188e+000
4.986626399099411e-005	4.786743e+000	0.000000e+000	2.575161e+000	4.785902e+000
4.986627599099414e-005	4.786743e+000	0.000000e+000	2.575158e+000	4.785902e+000
4.988135329525187e-005	4.786701e+000	0.000000e+000	2.571787e+000	4.785859e+000
4.989643059950961e-005	4.786658e+000	0.000000e+000	2.568415e+000	4.785816e+000
4.991150790376733e-005	4.786616e+000	0.000000e+000	2.565041e+000	4.785772e+000
4.992658520802507e-005	4.786574e+000	0.000000e+000	2.561665e+000	4.785729e+000
4.994166251228280e-005	4.786531e+000	0.000000e+000	2.558288e+000	4.785686e+000
4.995673981654053e-005	4.786489e+000	0.000000e+000	2.554910e+000	4.785643e+000
4.997181712079826e-005	4.786447e+000	0.000000e+000	2.551530e+000	4.785599e+000
4.997182312079827e-005	4.786447e+000	0.000000e+000	2.551528e+000	4.785599e+000
4.997184712079834e-005	4.786447e+000	0.000000e+000	2.551523e+000	4.785599e+000
4.997418326366198e-005	4.786440e+000	0.000000e+000	2.550999e+000	4.785592e+000
4.997651940652562e-005	4.786434e+000	0.000000e+000	2.550475e+000	4.785586e+000
4.997885554938926e-005	4.786427e+000	0.000000e+000	2.549951e+000	4.785579e+000
4.998119169225289e-005	4.786420e+000	0.000000e+000	2.549427e+000	4.785572e+000
4.998352783511653e-005	4.786414e+000	0.000000e+000	2.548903e+000	4.785565e+000
4.998586397798017e-005	4.786407e+000	0.000000e+000	2.548379e+000	4.785559e+000
4.998820012084381e-005	4.786400e+000	0.000000e+000	2.547855e+000	4.785552e+000
4.998820612084383e-005	4.786400e+000	0.000000e+000	2.547854e+000	4.785552e+000
4.998823012084389e-005	4.786400e+000	0.000000e+000	2.547848e+000	4.785552e+000
4.998932681786457e-005	4.786397e+000	0.000000e+000	2.547602e+000	4.785549e+000
4.999042351488525e-005	4.786394e+000	0.000000e+000	2.547356e+000	4.785545e+000
4.999152021190592e-005	4.786391e+000	0.000000e+000	2.547110e+000	4.785542e+000
4.999261690892660e-005	4.786388e+000	0.000000e+000	2.546864e+000	4.785539e+000
4.999371360594727e-005	4.786385e+000	0.000000e+000	2.546618e+000	4.785536e+000
4.999481030296795e-005	4.786382e+000	0.000000e+000	2.546372e+000	4.785533e+000
4.999590699998862e-005	4.786379e+000	0.000000e+000	2.546126e+000	4.785530e+000
4.999591099998863e-005	4.786379e+000	0.000000e+000	2.546125e+000	4.785530e+000
4.999593499998870e-005	4.786378e+000	0.000000e+000	2.546119e+000	4.785530e+000
4.999622314284664e-005	4.786378e+000	0.000000e+000	2.546055e+000	4.785529e+000
4.999651128570459e-005	4.786377e+000	0.000000e+000	2.545990e+000	4.785528e+000
4.999679942856253e-005	4.786376e+000	0.000000e+000	2.545925e+000	4.785527e+000
4.999708757142048e-005	4.786376e+000	0.000000e+000	2.545861e+000	4.785526e+000
4.999737571427842e-005	4.786375e+000	0.000000e+000	2.545796e+000	4.785526e+000
4.999766385713637e-005	4.786374e+000	0.000000e+000	2.545731e+000	4.785525e+000
4.999795199999431e-005	4.786373e+000	0.000000e+000	2.545667e+000	4.785524e+000
4.999795799999433e-005	4.786373e+000	0.000000e+000	2.545665e+000	4.785524e+000
4.999897599999716e-005	4.786370e+000	0.000000e+000	2.545437e+000	4.785521e+000
4.999898799999719e-005	4.786370e+000	0.000000e+000	2.545434e+000	4.785521e+000
4.999906057142596e-005	4.786370e+000	0.000000e+000	2.545418e+000	4.785520e+000
4.999913314285473e-005	4.786370e+000	0.000000e+000	2.545402e+000	4.785520e+000
4.999920571428351e-005	4.786369e+000	0.000000e+000	2.545385e+000	4.785520e+000
4.999927828571228e-005	4.786369e+000	0.000000e+000	2.545369e+000	4.785520e+000
4.999935085714106e-005	4.786369e+000	0.000000e+000	2.545353e+000	4.785520e+000
4.999942342856983e-005	4.786369e+000	0.000000e+000	2.545337e+000	4.785519e+000
4.999949599999860e-005	4.786368e+000	0.000000e+000	2.545320e+000	4.785519e+000
4.999990399999974e-005	4.786367e+000	0.000000e+000	2.545229e+000	4.785518e+000
4.999993699999983e-005	4.786367e+000	0.000000e+000	2.545221e+000	4.785518e+000
4.999994299999984e-005	4.786367e+000	0.000000e+000	2.545220e+000	4.785518e+000
4.999996799999991e-005	4.786367e+000	0.000000e+000	2.545214e+000	4.785518e+000
4.999997399999993e-005	4.786367e+000	0.000000e+000	2.545213e+000	4.785518e+000
4.999998399999996e-005	4.786367e+000	0.000000e+000	2.545211e+000	4.785518e+000
4.999998799999997e-005	4.786367e+000	0.000000e+000	2.545210e+000	4.785518e+000
4.999999199999998e-005	4.786367e+000	0.000000e+000	2.545209e+000	4.785518e+000
4.999999499999999e-005	4.786367e+000	0.000000e+000	2.545208e+000	4.785518e+000
4.999999599999999e-005	4.786367e+000	0.000000e+000	2.545208e+000	4.785518e+000
4.999999900000000e-005	4.786367e+000	0.000000e+000	2.545207e+000	4.785518e+000
5.000000000000000e-005	4.786367e+000	0.000000e+000	2.545207e+000	4.785518e+000
5.000000010000000e-005	4.786367e+000	1.000000e-001	2.545207e+000	4.785518e+000
5.000000030000000e-005	4.786366e+000	3.000000e-001	2.545207e+000	4.785512e+000
5.000000070000000e-005	4.786365e+000	7.000000e-001	2.545207e+000	4.785476e+000
5.000000100000001e-005	4.786363e+000	1.000000e+000	2.545207e+000	4.785431e+000
5.000000108000000e-005	4.786362e+000	1.000000e+000	2.545207e+000	4.785417e+000
5.000000124000000e-005	4.786360e+000	1.000000e+000	2.545207e+000	4.785388e+000
5.000000156000000e-005	4.786357e+000	1.000000e+000	2.545207e+000	4.785332e+000
5.000000220000000e-005	4.786351e+000	1.000000e+000	2.545207e+000	4.785219e+000
5.000000348000001e-005	4.786339e+000	1.000000e+000	2.545206e+000	4.784992e+000
5.000002140000006e-005	4.786171e+000	1.000000e+000	2.545202e+000	4.781825e+000
5.000076745714499e-005	4.779178e+000	1.000000e+000	2.545035e+000	4.654526e+000
5.000151351428993e-005	4.772208e+000	1.000000e+000	2.544867e+000	4.533392e+000
5.000225957143486e-005	4.765259e+000	1.000000e+000	2.544700e+000	4.418423e+000
5.000300562857979e-005	4.758333e+000	1.000000e+000	2.544532e+000	4.309620e+000
5.000375168572471e-005	4.751428e+000	1.000000e+000	2.544365e+000	4.206982e+000
5.000449774286965e-005	4.744545e+000	1.000000e+000	2.544197e+000	4.110509e+000
5.000524380001458e-005	4.737684e+000	1.000000e+000	2.544030e+000	4.020201e+000
5.001048668002916e-005	4.690011e+000	1.000000e+000	2.542853e+000	3.480399e+000
5.001848897770772e-005	4.618975e+000	1.000000e+000	2.541056e+000	2.908863e+000
5.002757313626534e-005	4.541277e+000	1.000000e+000	2.539016e+000	2.518188e+000
5.003704926099603e-005	4.465099e+000	1.000000e+000	2.536887e+000	2.324000e+000
5.004823512434390e-005	4.383562e+000	1.000000e+000	2.534373e+000	2.276682e+000
5.006193929856937e-005	4.295217e+000	1.000000e+000	2.531292e+000	2.350415e+000
5.007575365147528e-005	4.216236e+000	1.000000e+000	2.528185e+000	2.461311e+000
5.009155372260051e-005	4.133445e+000	1.000000e+000	2.524629e+000	2.545600e+000
5.011131500307717e-005	4.034697e+000	1.000000e+000	2.520180e+000	2.567015e+000
5.013438106124773e-005	3.923781e+000	1.000000e+000	2.514983e+000	2.537208e+000
5.015976641890577e-005	3.809132e+000	1.000000e+000	2.509260e+000	2.507255e+000
5.019198873590712e-005	3.677536e+000	1.000000e+000	2.501988e+000	2.498430e+000
5.023781560073674e-005	3.512585e+000	1.000000e+000	2.491633e+000	2.496171e+000
5.029042429196284e-005	3.353028e+000	1.000000e+000	2.479726e+000	2.484685e+000
5.039329144147783e-005	3.102773e+000	1.000000e+000	2.456390e+000	2.459596e+000
5.049460826107962e-005	2.920485e+000	1.000000e+000	2.433330e+000	2.437135e+000
5.068793130198724e-005	2.689453e+000	1.000000e+000	2.389129e+000	2.392668e+000
5.092230630198724e-005	2.509748e+000	1.000000e+000	2.335253e+000	2.338903e+000
5.115668130198724e-005	2.396484e+000	1.000000e+000	2.281044e+000	2.284691e+000
5.139105630198723e-005	2.316304e+000	1.000000e+000	2.226494e+000	2.230191e+000
5.162543130198723e-005	2.250433e+000	1.000000e+000	2.171612e+000	2.175325e+000
5.185980630198723e-005	2.190643e+000	1.000000e+000	2.116405e+000	2.120139e+000
5.209418130198722e-005	2.133341e+000	1.000000e+000	2.060881e+000	2.064648e+000
5.232855630198722e-005	2.076950e+000	1.000000e+000	2.005050e+000	2.008823e+000
5.303168130198721e-005	1.908151e+000	1.000000e+000	1.835793e+000	1.839645e+000
5.390221701627292e-005	1.695323e+000	1.000000e+000	1.621708e+000	1.625623e+000
5.477275273055862e-005	1.480130e+000	1.000000e+000	1.405409e+000	1.409379e+000
5.564328844484433e-005	1.262573e+000	1.000000e+000	1.186896e+000	1.190915e+000
5.651382415913003e-005	1.042652e+000	1.000000e+000	9.661686e-001	9.702289e-001
5.738435987341573e-005	8.203672e-001	1.000000e+000	7.432273e-001	7.473216e-001
5.825489558770144e-005	5.957178e-001	1.000000e+000	5.180720e-001	5.221929e-001
5.912543130198714e-005	3.687042e-001	1.000000e+000	2.907027e-001	2.948429e-001
6.053168130198712e-005	2.414746e-003	1.000000e+000	-7.579947e-002	-7.164922e-002
6.103391344484428e-005	-1.287321e-001	1.000000e+000	-2.069202e-001	-2.027717e-001
6.153614558770143e-005	-2.595670e-001	1.000000e+000	-3.376754e-001	-3.335316e-001
6.203837773055857e-005	-3.900898e-001	1.000000e+000	-4.680652e-001	-4.639289e-001
6.254060987341572e-005	-5.203005e-001	1.000000e+000	-5.980896e-001	-5.939635e-001
6.304284201627287e-005	-6.501992e-001	1.000000e+000	-7.277485e-001	-7.236356e-001
6.354507415913003e-005	-7.797859e-001	1.000000e+000	-8.570420e-001	-8.529450e-001
6.404730630198717e-005	-9.090605e-001	1.000000e+000	-9.859701e-001	-9.818919e-001
