time	V(logic)	V(signal_in)	V(signal_out)	V(vc)
0.000000000000000e+000	0.000000e+000	0.000000e+000	0.000000e+000	0.000000e+000
1.000000000000000e-012	1.000000e+000	2.261947e-005	4.297644e-015	3.799985e-018
4.108702831216416e-010	1.000000e+000	9.293821e-003	-3.658311e-006	-3.417631e-009
8.207405662432832e-010	1.000000e+000	1.856471e-002	2.230078e-007	5.898926e-011
1.230610849364925e-009	1.000000e+000	2.783529e-002	1.164395e-005	1.042986e-008
1.640481132486567e-009	1.000000e+000	3.710556e-002	3.060453e-005	2.769499e-008
2.050351415608208e-009	1.000000e+000	4.637552e-002	5.710474e-005	5.185436e-008
2.460221698729849e-009	1.000000e+000	5.564517e-002	9.114457e-005	8.290799e-008
2.870091981851490e-009	1.000000e+000	6.491450e-002	1.327240e-004	1.208559e-007
3.573263073088259e-009	1.000000e+000	8.081480e-002	2.541316e-004	2.330600e-007
4.459726983489863e-009	1.000000e+000	1.008562e-001	4.893608e-004	4.528054e-007
5.556732933841142e-009	1.000000e+000	1.256508e-001	9.355368e-004	8.752263e-007
6.936024158759807e-009	1.000000e+000	1.568123e-001	1.792317e-003	1.699928e-006
8.651575321737134e-009	1.000000e+000	1.955448e-001	3.413462e-003	3.292825e-006
1.080834509388905e-008	1.000000e+000	2.441880e-001	6.497463e-003	6.401377e-006
1.350751830032305e-008	1.000000e+000	3.049644e-001	1.230013e-002	1.243898e-005
1.691681107995523e-008	1.000000e+000	3.815314e-001	2.322689e-002	2.426728e-005
2.123041191825988e-008	1.000000e+000	4.780074e-001	4.361702e-002	4.746582e-005
2.675644527288675e-008	1.000000e+000	6.007745e-001	8.159324e-002	9.348984e-005
3.392363880194732e-008	1.000000e+000	7.582402e-001	1.517958e-001	1.858329e-004
4.347271062241403e-008	1.000000e+000	9.640206e-001	2.809320e-001	3.756519e-004
5.680789858564186e-008	1.000000e+000	1.242390e+000	5.132265e-001	7.680004e-004
7.208966277886355e-008	1.000000e+000	1.544912e+000	8.260714e-001	1.401024e-003
9.139208608226413e-008	1.000000e+000	1.896322e+000	1.247050e+000	2.459778e-003
1.126361764622542e-007	1.000000e+000	2.231191e+000	1.692445e+000	3.932692e-003
1.432535037657373e-007	1.000000e+000	2.620183e+000	2.262565e+000	6.462947e-003
1.660167465419014e-007	1.000000e+000	2.845264e+000	2.626720e+000	8.555574e-003
1.696948574198239e-007	1.000000e+000	2.872483e+000	2.676096e+000	8.916019e-003
1.770510791756690e-007	1.000000e+000	2.912436e+000	2.758426e+000	9.660133e-003
1.917635226873593e-007	1.000000e+000	2.976617e+000	2.904325e+000	1.116473e-002
1.917645226873593e-007	1.000000e+000	2.976621e+000	2.904334e+000	1.116484e-002
1.917665226873593e-007	1.000000e+000	2.976626e+000	2.904351e+000	1.116504e-002
1.917705226873593e-007	1.000000e+000	2.976638e+000	2.904383e+000	1.116546e-002
1.917785226873593e-007	1.000000e+000	2.976660e+000	2.904448e+000	1.116629e-002
1.917945226873593e-007	1.000000e+000	2.976705e+000	2.904577e+000	1.116794e-002
1.918265226873594e-007	1.000000e+000	2.976795e+000	2.904835e+000	1.117126e-002
1.918905226873594e-007	1.000000e+000	2.976974e+000	2.905350e+000	1.117789e-002
1.920185226873596e-007	1.000000e+000	2.977330e+000	2.906378e+000	1.119115e-002
1.922745226873599e-007	1.000000e+000	2.978031e+000	2.908420e+000	1.121768e-002
1.927865226873604e-007	1.000000e+000	2.979391e+000	2.912456e+000	1.127075e-002
1.938105226873616e-007	1.000000e+000	2.981944e+000	2.920330e+000	1.137697e-002
1.950906883572664e-007	1.000000e+000	2.984992e+000	2.929999e+000	1.150988e-002
1.963708540271713e-007	1.000000e+000	2.987751e+000	2.939327e+000	1.164285e-002
1.976510196970762e-007	1.000000e+000	2.990220e+000	2.948314e+000	1.177589e-002
1.989311853669810e-007	1.000000e+000	2.992399e+000	2.956961e+000	1.190901e-002
2.002113510368859e-007	1.000000e+000	2.994289e+000	2.965268e+000	1.204219e-002
2.014915167067907e-007	1.000000e+000	2.995889e+000	2.973235e+000	1.217545e-002
2.027716823766956e-007	1.000000e+000	2.997199e+000	2.980860e+000	1.230877e-002
2.053293629980508e-007	1.000000e+000	2.999230e+000	2.995418e+000	1.257517e-002
2.053303629980508e-007	1.000000e+000	2.999231e+000	2.995423e+000	1.257527e-002
2.053323629980508e-007	1.000000e+000	2.999232e+000	2.995434e+000	1.257548e-002
2.053363629980508e-007	1.000000e+000	2.999234e+000	2.995455e+000	1.257590e-002
2.053443629980509e-007	1.000000e+000	2.999238e+000	2.995498e+000	1.257673e-002
2.053603629980509e-007	1.000000e+000	2.999246e+000	2.995584e+000	1.257840e-002
2.053923629980509e-007	1.000000e+000	2.999262e+000	2.995755e+000	1.258173e-002
2.054563629980510e-007	1.000000e+000	2.999294e+000	2.996097e+000	1.258840e-002
2.055843629980511e-007	1.000000e+000	2.999354e+000	2.996778e+000	1.260173e-002
2.058403629980514e-007	1.000000e+000	2.999465e+000	2.998127e+000	1.262840e-002
2.063523629980520e-007	1.000000e+000	2.999643e+000	3.000777e+000	1.268174e-002
2.073763629980532e-007	1.000000e+000	2.999922e+000	3.005987e+000	1.278840e-002
2.073773629980532e-007	1.000000e+000	2.999922e+000	3.005992e+000	1.278851e-002
2.073793629980532e-007	1.000000e+000	2.999923e+000	3.006002e+000	1.278872e-002
2.073833629980532e-007	1.000000e+000	2.999923e+000	3.006022e+000	1.278913e-002
2.073913629980532e-007	1.000000e+000	2.999924e+000	3.006062e+000	1.278997e-002
2.074073629980532e-007	1.000000e+000	2.999927e+000	3.006141e+000	1.279163e-002
2.074393629980532e-007	1.000000e+000	2.999932e+000	3.006299e+000	1.279496e-002
2.075033629980533e-007	1.000000e+000	2.999941e+000	3.006616e+000	1.280163e-002
2.076313629980535e-007	1.000000e+000	2.999957e+000	3.007245e+000	1.281496e-002
2.078873629980537e-007	1.000000e+000	2.999983e+000	3.008498e+000	1.284163e-002
2.078883629980537e-007	1.000000e+000	2.999983e+000	3.008503e+000	1.284173e-002
2.078903629980537e-007	1.000000e+000	2.999983e+000	3.008512e+000	1.284194e-002
2.078943629980538e-007	1.000000e+000	2.999984e+000	3.008532e+000	1.284236e-002
2.079023629980538e-007	1.000000e+000	2.999984e+000	3.008571e+000	1.284319e-002
2.079183629980538e-007	1.000000e+000	2.999985e+000	3.008648e+000	1.284486e-002
2.079503629980538e-007	1.000000e+000	2.999987e+000	3.008804e+000	1.284819e-002
2.080143629980539e-007	1.000000e+000	2.999991e+000	3.009113e+000	1.285486e-002
2.081423629980540e-007	1.000000e+000	2.999997e+000	3.009732e+000	1.286819e-002
2.081433629980540e-007	1.000000e+000	2.999997e+000	3.009736e+000	1.286829e-002
2.081453629980540e-007	1.000000e+000	2.999997e+000	3.009746e+000	1.286850e-002
2.081493629980540e-007	1.000000e+000	2.999997e+000	3.009765e+000	1.286892e-002
2.081573629980540e-007	1.000000e+000	2.999997e+000	3.009804e+000	1.286975e-002
2.081733629980541e-007	1.000000e+000	2.999998e+000	3.009881e+000	1.287142e-002
2.082053629980541e-007	1.000000e+000	2.999999e+000	3.010034e+000	1.287475e-002
2.082693629980542e-007	1.000000e+000	3.000000e+000	3.010341e+000	1.288141e-002
2.082703629980542e-007	1.000000e+000	3.000000e+000	3.010346e+000	1.288152e-002
2.082723629980542e-007	1.000000e+000	3.000000e+000	3.010355e+000	1.288173e-002
2.082763629980542e-007	1.000000e+000	3.000000e+000	3.010375e+000	1.288214e-002
2.082843629980542e-007	1.000000e+000	3.000000e+000	3.010413e+000	1.288298e-002
2.083003629980542e-007	1.000000e+000	3.000000e+000	3.010489e+000	1.288464e-002
2.083023333333330e-007	1.000000e+000	3.000000e+000	3.010499e+000	1.288485e-002
2.083062740038905e-007	1.000000e+000	3.000000e+000	3.010518e+000	1.288526e-002
2.083141553450054e-007	1.000000e+000	3.000000e+000	3.010556e+000	1.288608e-002
2.083185706511030e-007	1.000000e+000	3.000000e+000	3.010576e+000	1.288654e-002
2.083255027211379e-007	1.000000e+000	3.000000e+000	3.010610e+000	1.288726e-002
2.083265027211379e-007	1.000000e+000	3.000000e+000	3.010614e+000	1.288737e-002
2.083285027211379e-007	1.000000e+000	3.000000e+000	3.010624e+000	1.288757e-002
2.083303333333330e-007	1.000000e+000	3.000000e+000	3.010633e+000	1.288776e-002
2.083316721089428e-007	1.000000e+000	3.000000e+000	3.010639e+000	1.288790e-002
2.083326721089428e-007	1.000000e+000	3.000000e+000	3.010644e+000	1.288801e-002
2.083336721089428e-007	1.000000e+000	3.000000e+000	3.010649e+000	1.288811e-002
2.083343333333330e-007	1.000000e+000	3.000000e+000	3.010652e+000	1.288818e-002
2.083344333333330e-007	9.000000e-001	3.000000e+000	3.010652e+000	1.288819e-002
2.083346333333330e-007	7.000000e-001	3.000000e+000	3.010649e+000	1.288821e-002
2.083350333333330e-007	3.000000e-001	3.000000e+000	3.010625e+000	1.288823e-002
2.083353333333330e-007	0.000000e+000	3.000000e+000	3.010596e+000	1.288823e-002
2.083354133333330e-007	0.000000e+000	3.000000e+000	3.010587e+000	1.288823e-002
2.083355733333330e-007	0.000000e+000	3.000000e+000	3.010569e+000	1.288823e-002
2.083358933333330e-007	0.000000e+000	3.000000e+000	3.010533e+000	1.288823e-002
2.083365333333330e-007	0.000000e+000	3.000000e+000	3.010460e+000	1.288823e-002
2.083378133333330e-007	0.000000e+000	3.000000e+000	3.010316e+000	1.288823e-002
2.083403733333330e-007	0.000000e+000	3.000000e+000	3.010026e+000	1.288823e-002
2.083454933333330e-007	0.000000e+000	3.000000e+000	3.009448e+000	1.288823e-002
2.083557333333330e-007	0.000000e+000	3.000000e+000	3.008291e+000	1.288823e-002
2.083762133333330e-007	0.000000e+000	3.000000e+000	3.005980e+000	1.288823e-002
2.084171733333331e-007	0.000000e+000	2.999999e+000	3.001365e+000	1.288823e-002
2.084990933333332e-007	0.000000e+000	2.999997e+000	2.992160e+000	1.288823e-002
2.086629333333333e-007	0.000000e+000	2.999988e+000	2.973857e+000	1.288823e-002
2.089906133333337e-007	0.000000e+000	2.999954e+000	2.937670e+000	1.288823e-002
2.096459733333345e-007	0.000000e+000	2.999816e+000	2.866934e+000	1.288823e-002
2.109566933333360e-007	0.000000e+000	2.999267e+000	2.731727e+000	1.288823e-002
2.135781333333389e-007	0.000000e+000	2.997069e+000	2.484251e+000	1.288823e-002
2.188210133333449e-007	0.000000e+000	2.988666e+000	2.061765e+000	1.288824e-002
2.276236992013579e-007	0.000000e+000	2.964561e+000	1.502162e+000	1.288824e-002
2.377682625936217e-007	0.000000e+000	2.922207e+000	1.029451e+000	1.288824e-002
2.477581584232287e-007	0.000000e+000	2.864123e+000	7.080326e-001	1.288825e-002
2.583480537264148e-007	0.000000e+000	2.784996e+000	4.771622e-001	1.288825e-002
2.683790264018032e-007	0.000000e+000	2.693761e+000	3.290906e-001	1.288825e-002
2.787968069226403e-007	0.000000e+000	2.582592e+000	2.254835e-001	1.288826e-002
2.889375665733399e-007	0.000000e+000	2.459091e+000	1.572367e-001	1.288826e-002
2.994517010762897e-007	0.000000e+000	2.315830e+000	1.096124e-001	1.288826e-002
3.098274687181414e-007	0.000000e+000	2.160211e+000	7.800078e-002	1.288827e-002
3.205655143039430e-007	0.000000e+000	1.985207e+000	5.616182e-002	1.288827e-002
3.313427145685396e-007	0.000000e+000	1.796486e+000	4.160067e-002	1.288827e-002
3.426039552000738e-007	0.000000e+000	1.586599e+000	3.161346e-002	1.288828e-002
3.541876882168175e-007	0.000000e+000	1.358786e+000	2.495638e-002	1.288828e-002
3.665638035495723e-007	0.000000e+000	1.103984e+000	2.044865e-002	1.288828e-002
3.797591919714859e-007	0.000000e+000	8.218637e-001	1.748621e-002	1.288828e-002
3.943929429073487e-007	0.000000e+000	5.007618e-001	1.541872e-002	1.288829e-002
4.002796097932390e-007	0.000000e+000	3.695778e-001	1.485955e-002	1.288829e-002
4.048933328948864e-007	0.000000e+000	2.659099e-001	1.453559e-002	1.288829e-002
4.074392204633722e-007	0.000000e+000	2.085222e-001	1.438402e-002	1.288829e-002
4.115748915296953e-007	0.000000e+000	1.151126e-001	1.417300e-002	1.288829e-002
4.166666666666670e-007	0.000000e+000	-6.293944e-015	1.394083e-002	1.288829e-002
4.166667666666670e-007	1.000000e-001	-2.261947e-006	1.394083e-002	1.288829e-002
4.166669666666670e-007	3.000000e-001	-6.785840e-006	1.394216e-002	1.288829e-002
4.166673666666669e-007	7.000000e-001	-1.583363e-005	1.395068e-002	1.288830e-002
4.166676666666670e-007	1.000000e+000	-2.261947e-005	1.396126e-002	1.288831e-002
4.174166380952194e-007	1.000000e+000	-1.696536e-002	4.483760e-002	1.291621e-002
4.181656095237719e-007	1.000000e+000	-3.390488e-002	7.421251e-002	1.294358e-002
4.189145809523243e-007	1.000000e+000	-5.084117e-002	1.020860e-001	1.297042e-002
4.196635523808768e-007	1.000000e+000	-6.777423e-002	1.284580e-001	1.299673e-002
4.204125238094292e-007	1.000000e+000	-8.470406e-002	1.533287e-001	1.302250e-002
4.211614952379817e-007	1.000000e+000	-1.016307e-001	1.766979e-001	1.304774e-002
4.219104666665341e-007	1.000000e+000	-1.185540e-001	1.985657e-001	1.307244e-002
4.271533466664013e-007	1.000000e+000	-2.368021e-001	3.231296e-001	1.323143e-002
4.351672949103436e-007	1.000000e+000	-4.166932e-001	4.305516e-001	1.342746e-002
4.439964141605083e-007	1.000000e+000	-6.131817e-001	4.473310e-001	1.356812e-002
4.523209873054553e-007	1.000000e+000	-7.961932e-001	3.743261e-001	1.361558e-002
4.588954075102113e-007	1.000000e+000	-9.385297e-001	2.608438e-001	1.358282e-002
4.657693771243942e-007	1.000000e+000	-1.084752e+000	1.018404e-001	1.348036e-002
4.726151818865861e-007	1.000000e+000	-1.227507e+000	-8.046500e-002	1.331859e-002
4.794602794407589e-007	1.000000e+000	-1.366667e+000	-2.761012e-001	1.309823e-002
4.885221786389190e-007	1.000000e+000	-1.544290e+000	-5.403959e-001	1.272318e-002
5.017993806541035e-007	1.000000e+000	-1.789504e+000	-9.165179e-001	1.203127e-002
5.209683329523303e-007	1.000000e+000	-2.106002e+000	-1.410721e+000	1.077795e-002
5.505067480342907e-007	1.000000e+000	-2.511379e+000	-2.060121e+000	8.440508e-003
5.767532205231880e-007	1.000000e+000	-2.797447e+000	-2.540429e+000	6.084266e-003
5.828508284053597e-007	1.000000e+000	-2.846753e+000	-2.630539e+000	5.490892e-003
5.950460441697031e-007	1.000000e+000	-2.921006e+000	-2.780375e+000	4.256494e-003
6.006105684713131e-007	1.000000e+000	-2.946817e+000	-2.838405e+000	3.684561e-003
6.117396170745330e-007	1.000000e+000	-2.985018e+000	-2.937289e+000	2.528735e-003
6.117406170745330e-007	1.000000e+000	-2.985020e+000	-2.937297e+000	2.528630e-003
6.117426170745331e-007	1.000000e+000	-2.985025e+000	-2.937312e+000	2.528421e-003
6.117466170745332e-007	1.000000e+000	-2.985034e+000	-2.937341e+000	2.528003e-003
6.117546170745334e-007	1.000000e+000	-2.985052e+000	-2.937400e+000	2.527167e-003
6.117706170745339e-007	1.000000e+000	-2.985088e+000	-2.937519e+000	2.525494e-003
6.118026170745348e-007	1.000000e+000	-2.985160e+000	-2.937755e+000	2.522149e-003
6.118666170745365e-007	1.000000e+000	-2.985303e+000	-2.938227e+000	2.515458e-003
6.119946170745401e-007	1.000000e+000	-2.985587e+000	-2.939167e+000	2.502076e-003
6.122506170745471e-007	1.000000e+000	-2.986144e+000	-2.941035e+000	2.475308e-003
6.137866170745895e-007	1.000000e+000	-2.989195e+000	-2.951881e+000	2.314620e-003
6.158346170746460e-007	1.000000e+000	-2.992483e+000	-2.965386e+000	2.100215e-003
6.199306170747591e-007	1.000000e+000	-2.997809e+000	-2.990870e+000	1.671212e-003
6.199316170747591e-007	1.000000e+000	-2.997810e+000	-2.990876e+000	1.671107e-003
6.199336170747592e-007	1.000000e+000	-2.997812e+000	-2.990887e+000	1.670898e-003
6.199376170747593e-007	1.000000e+000	-2.997815e+000	-2.990910e+000	1.670479e-003
6.199456170747595e-007	1.000000e+000	-2.997822e+000	-2.990956e+000	1.669640e-003
6.199616170747600e-007	1.000000e+000	-2.997836e+000	-2.991047e+000	1.667964e-003
6.199936170747609e-007	1.000000e+000	-2.997863e+000	-2.991229e+000	1.664611e-003
6.200576170747626e-007	1.000000e+000	-2.997917e+000	-2.991591e+000	1.657904e-003
6.201856170747662e-007	1.000000e+000	-2.998022e+000	-2.992314e+000	1.644492e-003
6.204416170747732e-007	1.000000e+000	-2.998223e+000	-2.993746e+000	1.617666e-003
6.219776170748156e-007	1.000000e+000	-2.999178e+000	-3.002045e+000	1.456716e-003
6.230502341497443e-007	1.000000e+000	-2.999675e+000	-3.007636e+000	1.344327e-003
6.236336390485496e-007	1.000000e+000	-2.999831e+000	-3.010542e+000	1.283206e-003
6.242231268015929e-007	1.000000e+000	-2.999949e+000	-3.013431e+000	1.221451e-003
6.242241268015930e-007	1.000000e+000	-2.999949e+000	-3.013436e+000	1.221346e-003
6.242261268015930e-007	1.000000e+000	-2.999949e+000	-3.013446e+000	1.221137e-003
6.242301268015931e-007	1.000000e+000	-2.999949e+000	-3.013465e+000	1.220718e-003
6.242381268015934e-007	1.000000e+000	-2.999950e+000	-3.013504e+000	1.219880e-003
6.242541268015938e-007	1.000000e+000	-2.999953e+000	-3.013581e+000	1.218204e-003
6.242861268015947e-007	1.000000e+000	-2.999957e+000	-3.013734e+000	1.214852e-003
6.243501268015964e-007	1.000000e+000	-2.999964e+000	-3.014041e+000	1.208147e-003
6.244781268016000e-007	1.000000e+000	-2.999975e+000	-3.014652e+000	1.194740e-003
6.247341268016070e-007	1.000000e+000	-2.999994e+000	-3.015869e+000	1.167925e-003
6.247351268016071e-007	1.000000e+000	-2.999994e+000	-3.015874e+000	1.167820e-003
6.247371268016071e-007	1.000000e+000	-2.999994e+000	-3.015883e+000	1.167611e-003
6.247411268016072e-007	1.000000e+000	-2.999994e+000	-3.015902e+000	1.167192e-003
6.247491268016075e-007	1.000000e+000	-2.999995e+000	-3.015940e+000	1.166354e-003
6.247651268016079e-007	1.000000e+000	-2.999995e+000	-3.016015e+000	1.164678e-003
6.247971268016088e-007	1.000000e+000	-2.999996e+000	-3.016166e+000	1.161326e-003
6.248611268016106e-007	1.000000e+000	-2.999998e+000	-3.016467e+000	1.154623e-003
6.248729999999964e-007	1.000000e+000	-2.999999e+000	-3.016522e+000	1.153379e-003
6.248967463967682e-007	1.000000e+000	-2.999999e+000	-3.016634e+000	1.150892e-003
6.249442391903118e-007	1.000000e+000	-3.000000e+000	-3.016856e+000	1.145918e-003
6.249452391903118e-007	1.000000e+000	-3.000000e+000	-3.016861e+000	1.145813e-003
6.249472391903119e-007	1.000000e+000	-3.000000e+000	-3.016870e+000	1.145604e-003
6.249512391903120e-007	1.000000e+000	-3.000000e+000	-3.016889e+000	1.145185e-003
6.249592391903122e-007	1.000000e+000	-3.000000e+000	-3.016926e+000	1.144347e-003
6.249752391903127e-007	1.000000e+000	-3.000000e+000	-3.017001e+000	1.142671e-003
6.249762391903127e-007	1.000000e+000	-3.000000e+000	-3.017006e+000	1.142566e-003
6.249782391903127e-007	1.000000e+000	-3.000000e+000	-3.017015e+000	1.142357e-003
6.249822391903128e-007	1.000000e+000	-3.000000e+000	-3.017034e+000	1.141938e-003
6.249902391903131e-007	1.000000e+000	-3.000000e+000	-3.017071e+000	1.141100e-003
6.249932391903132e-007	1.000000e+000	-3.000000e+000	-3.017085e+000	1.140786e-003
6.249972391903133e-007	1.000000e+000	-3.000000e+000	-3.017104e+000	1.140367e-003
6.249982391903133e-007	1.000000e+000	-3.000000e+000	-3.017108e+000	1.140262e-003
6.249992391903133e-007	1.000000e+000	-3.000000e+000	-3.017113e+000	1.140158e-003
6.250002391903133e-007	1.000000e+000	-3.000000e+000	-3.017118e+000	1.140053e-003
6.250010000000000e-007	1.000000e+000	-3.000000e+000	-3.017121e+000	1.139973e-003
6.250011000000000e-007	9.000000e-001	-3.000000e+000	-3.017122e+000	1.139963e-003
6.250013000000000e-007	7.000000e-001	-3.000000e+000	-3.017118e+000	1.139946e-003
6.250017000000000e-007	3.000000e-001	-3.000000e+000	-3.017094e+000	1.139927e-003
6.250020000000000e-007	0.000000e+000	-3.000000e+000	-3.017065e+000	1.139922e-003
6.250020800000000e-007	0.000000e+000	-3.000000e+000	-3.017056e+000	1.139922e-003
6.250022400000000e-007	0.000000e+000	-3.000000e+000	-3.017038e+000	1.139922e-003
6.250025600000000e-007	0.000000e+000	-3.000000e+000	-3.017001e+000	1.139922e-003
6.250032000000000e-007	0.000000e+000	-3.000000e+000	-3.016928e+000	1.139922e-003
6.250044800000000e-007	0.000000e+000	-3.000000e+000	-3.016783e+000	1.139922e-003
6.250070400000001e-007	0.000000e+000	-3.000000e+000	-3.016491e+000	1.139922e-003
6.250121600000002e-007	0.000000e+000	-3.000000e+000	-3.015909e+000	1.139922e-003
6.250224000000005e-007	0.000000e+000	-3.000000e+000	-3.014745e+000	1.139922e-003
6.250428800000011e-007	0.000000e+000	-3.000000e+000	-3.012418e+000	1.139922e-003
6.250838400000022e-007	0.000000e+000	-2.999999e+000	-3.007771e+000	1.139922e-003
6.251657600000045e-007	0.000000e+000	-2.999997e+000	-2.998503e+000	1.139922e-003
6.253296000000090e-007	0.000000e+000	-2.999988e+000	-2.980075e+000	1.139922e-003
6.256572800000180e-007	0.000000e+000	-2.999954e+000	-2.943640e+000	1.139922e-003
6.263126400000362e-007	0.000000e+000	-2.999816e+000	-2.872421e+000	1.139922e-003
6.276233600000724e-007	0.000000e+000	-2.999267e+000	-2.736289e+000	1.139922e-003
6.302448000001447e-007	0.000000e+000	-2.997069e+000	-2.487122e+000	1.139921e-003
