time	V(logic)	V(signal_in)	V(signal_out)	V(vc)
0.000000000000000e+000	0.000000e+000	0.000000e+000	0.000000e+000	0.000000e+000
1.000000000000000e-012	1.000000e+000	2.607522e-007	1.163876e-018	6.174562e-021
4.598011184306338e-009	1.000000e+000	1.198942e-003	-1.566114e-006	-9.203909e-009
9.195022368612674e-009	1.000000e+000	2.397622e-003	1.668619e-007	2.146622e-010
1.379203355291901e-008	1.000000e+000	3.596303e-003	5.198929e-006	2.825572e-008
1.838904473722535e-008	1.000000e+000	4.794983e-003	1.353009e-005	7.491925e-008
2.298605592153169e-008	1.000000e+000	5.993663e-003	2.516034e-005	1.402053e-007
2.758306710583803e-008	1.000000e+000	7.192342e-003	4.008968e-005	2.241138e-007
3.218007829014435e-008	1.000000e+000	8.391022e-003	5.831811e-005	3.266447e-007
4.020000479213099e-008	1.000000e+000	1.048223e-002	1.120424e-004	6.359128e-007
5.009978835048495e-008	1.000000e+000	1.306361e-002	2.130218e-004	1.228841e-006
6.261581096507763e-008	1.000000e+000	1.632718e-002	4.063850e-004	2.392369e-006
7.819891286025613e-008	1.000000e+000	2.039048e-002	7.688488e-004	4.641015e-006
9.792989296693878e-008	1.000000e+000	2.553531e-002	1.454262e-003	9.057519e-006
1.227848044636942e-007	1.000000e+000	3.201617e-002	2.730804e-003	1.768379e-005
1.546010832485508e-007	1.000000e+000	4.031210e-002	5.114630e-003	3.478919e-005
1.955983231262278e-007	1.000000e+000	5.100173e-002	9.516051e-003	6.890533e-005
2.497885061931965e-007	1.000000e+000	6.513087e-002	1.764415e-002	1.386553e-004
3.237765980816658e-007	1.000000e+000	8.442097e-002	3.256974e-002	2.861978e-004
4.324618146019582e-007	1.000000e+000	1.127548e-001	5.994714e-002	6.084586e-004
5.571091658114872e-007	1.000000e+000	1.452452e-001	9.561537e-002	1.127878e-003
7.018968961865374e-007	1.000000e+000	1.829771e-001	1.383958e-001	1.929702e-003
8.767984461944025e-007	1.000000e+000	2.285421e-001	1.879066e-001	3.149232e-003
1.072110946194403e-006	1.000000e+000	2.794024e-001	2.397090e-001	4.798993e-003
1.267423446194403e-006	1.000000e+000	3.302343e-001	2.895371e-001	6.748573e-003
1.462735946194403e-006	1.000000e+000	3.810319e-001	3.393287e-001	9.008543e-003
1.658048446194403e-006	1.000000e+000	4.317900e-001	3.898649e-001	1.158332e-002
1.853360946194403e-006	1.000000e+000	4.825033e-001	4.408529e-001	1.447318e-002
2.048673446194403e-006	1.000000e+000	5.331666e-001	4.918059e-001	1.767488e-002
2.243985946194403e-006	1.000000e+000	5.837745e-001	5.425261e-001	2.118446e-002
2.439298446194403e-006	1.000000e+000	6.343219e-001	5.930717e-001	2.499892e-002
2.634610946194403e-006	1.000000e+000	6.848034e-001	6.435510e-001	2.911607e-002
2.829923446194403e-006	1.000000e+000	7.352139e-001	6.940058e-001	3.353387e-002
3.025235946194403e-006	1.000000e+000	7.855482e-001	7.444171e-001	3.825006e-002
3.220548446194404e-006	1.000000e+000	8.358009e-001	7.947528e-001	4.326212e-002
3.415860946194404e-006	1.000000e+000	8.859669e-001	8.449962e-001	4.856753e-002
3.806485946194404e-006	1.000000e+000	9.860181e-001	9.452006e-001	6.004828e-002
4.197110946194403e-006	1.000000e+000	1.085660e+000	1.045018e+000	7.267230e-002
4.587735946194402e-006	1.000000e+000	1.184851e+000	1.144404e+000	8.641928e-002
4.978360946194402e-006	1.000000e+000	1.283551e+000	1.243313e+000	1.012686e-001
5.564298446194401e-006	1.000000e+000	1.430589e+000	1.390697e+000	1.255636e-001
6.150235946194400e-006	1.000000e+000	1.576292e+000	1.536783e+000	1.522202e-001
6.736173446194399e-006	1.000000e+000	1.720523e+000	1.681434e+000	1.811655e-001
7.545325231908686e-006	1.000000e+000	1.917862e+000	1.879417e+000	2.252827e-001
8.354477017622974e-006	1.000000e+000	2.110949e+000	2.073213e+000	2.729079e-001
9.163628803337262e-006	1.000000e+000	2.299785e+000	2.262822e+000	3.240412e-001
9.972780589051549e-006	1.000000e+000	2.484369e+000	2.448244e+000	3.786827e-001
1.078193237476584e-005	1.000000e+000	2.664702e+000	2.629480e+000	4.368322e-001
1.159108416048012e-005	1.000000e+000	2.840784e+000	2.806530e+000	4.984898e-001
1.240023594619441e-005	1.000000e+000	3.012613e+000	2.979392e+000	5.636555e-001
1.354420916048012e-005	1.000000e+000	3.246960e+000	3.215310e+000	6.612885e-001
1.468818237476583e-005	1.000000e+000	3.467929e+000	3.437947e+000	7.622287e-001
1.583215558905154e-005	1.000000e+000	3.675520e+000	3.647303e+000	8.664762e-001
1.697612880333725e-005	1.000000e+000	3.869733e+000	3.843378e+000	9.740309e-001
1.812010201762297e-005	1.000000e+000	4.050569e+000	4.026172e+000	1.084893e+000
1.926407523190868e-005	1.000000e+000	4.218027e+000	4.195684e+000	1.199062e+000
2.040804844619439e-005	1.000000e+000	4.372107e+000	4.351915e+000	1.316538e+000
2.106404166816662e-005	1.000000e+000	4.452688e+000	4.433757e+000	1.383808e+000
2.172003489013885e-005	1.000000e+000	4.527870e+000	4.510218e+000	1.451018e+000
2.237602811211108e-005	1.000000e+000	4.597653e+000	4.581297e+000	1.518168e+000
2.303202133408331e-005	1.000000e+000	4.662035e+000	4.646996e+000	1.585259e+000
2.368801455605554e-005	1.000000e+000	4.721019e+000	4.707313e+000	1.652291e+000
2.434400777802777e-005	1.000000e+000	4.774603e+000	4.762249e+000	1.719264e+000
2.500000100000000e-005	1.000000e+000	4.822787e+000	4.811803e+000	1.786177e+000
2.500000110000000e-005	9.000000e-001	4.822787e+000	4.811803e+000	1.786177e+000
2.500000130000000e-005	7.000000e-001	4.822787e+000	4.811803e+000	1.786178e+000
2.500000170000000e-005	3.000000e-001	4.822787e+000	4.811799e+000	1.786178e+000
2.500000200000000e-005	0.000000e+000	4.822787e+000	4.811794e+000	1.786178e+000
2.500000208000000e-005	0.000000e+000	4.822787e+000	4.811792e+000	1.786178e+000
2.500000224000000e-005	0.000000e+000	4.822787e+000	4.811789e+000	1.786178e+000
2.500000256000000e-005	0.000000e+000	4.822787e+000	4.811783e+000	1.786178e+000
2.500000320000000e-005	0.000000e+000	4.822787e+000	4.811771e+000	1.786178e+000
2.500000448000000e-005	0.000000e+000	4.822787e+000	4.811747e+000	1.786178e+000
2.500000704000000e-005	0.000000e+000	4.822788e+000	4.811698e+000	1.786178e+000
2.500001215999999e-005	0.000000e+000	4.822788e+000	4.811601e+000	1.786178e+000
2.500002239999999e-005	0.000000e+000	4.822789e+000	4.811406e+000	1.786178e+000
2.500004287999997e-005	0.000000e+000	4.822790e+000	4.811017e+000	1.786178e+000
2.500008383999995e-005	0.000000e+000	4.822793e+000	4.810239e+000	1.786178e+000
2.500016575999990e-005	0.000000e+000	4.822799e+000	4.808683e+000	1.786178e+000
2.500032959999980e-005	0.000000e+000	4.822810e+000	4.805575e+000	1.786178e+000
2.500065727999960e-005	0.000000e+000	4.822832e+000	4.799372e+000	1.786178e+000
2.500131263999920e-005	0.000000e+000	4.822877e+000	4.787013e+000	1.786178e+000
2.500524479999681e-005	0.000000e+000	4.823148e+000	4.714170e+000	1.786178e+000
2.501048767999363e-005	0.000000e+000	4.823508e+000	4.620439e+000	1.786178e+000
2.502097343998726e-005	0.000000e+000	4.824226e+000	4.443884e+000	1.786178e+000
2.504194495997451e-005	0.000000e+000	4.825659e+000	4.129628e+000	1.786179e+000
2.508388799994903e-005	0.000000e+000	4.828504e+000	3.615693e+000	1.786180e+000
2.514939156430642e-005	0.000000e+000	4.832900e+000	3.029746e+000	1.786182e+000
2.524207764904436e-005	0.000000e+000	4.839033e+000	2.486660e+000	1.786185e+000
2.532555702047471e-005	0.000000e+000	4.844463e+000	2.195972e+000	1.786188e+000
2.542595631143680e-005	0.000000e+000	4.850868e+000	2.005562e+000	1.786192e+000
2.553039706327623e-005	0.000000e+000	4.857384e+000	1.901121e+000	1.786196e+000
2.566928355652669e-005	0.000000e+000	4.865818e+000	1.836195e+000	1.786201e+000
2.582787390786971e-005	0.000000e+000	4.875134e+000	1.805231e+000	1.786207e+000
2.602318640786971e-005	0.000000e+000	4.886164e+000	1.792296e+000	1.786214e+000
2.641381140786970e-005	0.000000e+000	4.906747e+000	1.787601e+000	1.786228e+000
2.872965962215541e-005	0.000000e+000	4.982939e+000	1.787589e+000	1.786319e+000
3.104550783644110e-005	0.000000e+000	4.989314e+000	1.787583e+000	1.786407e+000
3.336135605072681e-005	0.000000e+000	4.925873e+000	1.787582e+000	1.786493e+000
3.567720426501251e-005	0.000000e+000	4.792616e+000	1.787585e+000	1.786575e+000
3.799305247929821e-005	0.000000e+000	4.589541e+000	1.787594e+000	1.786654e+000
4.030890069358391e-005	0.000000e+000	4.316651e+000	1.787608e+000	1.786729e+000
4.262474890786961e-005	0.000000e+000	3.973944e+000	1.787627e+000	1.786802e+000
4.362921319358389e-005	0.000000e+000	3.808320e+000	1.787606e+000	1.786830e+000
4.463367747929817e-005	0.000000e+000	3.633523e+000	1.787580e+000	1.786855e+000
4.563814176501245e-005	0.000000e+000	3.449554e+000	1.787549e+000	1.786879e+000
4.664260605072673e-005	0.000000e+000	3.256412e+000	1.787512e+000	1.786901e+000
4.764707033644101e-005	0.000000e+000	3.054097e+000	1.787472e+000	1.786920e+000
4.865153462215529e-005	0.000000e+000	2.842610e+000	1.787426e+000	1.786938e+000
4.965599890786957e-005	0.000000e+000	2.621949e+000	1.787375e+000	1.786954e+000
4.980468750000000e-005	0.000000e+000	2.588910e+000	1.787367e+000	1.786956e+000
4.980468850000001e-005	0.000000e+000	2.588910e+000	1.787367e+000	1.786956e+000
4.980469050000001e-005	0.000000e+000	2.588910e+000	1.787367e+000	1.786956e+000
4.980469450000002e-005	0.000000e+000	2.588909e+000	1.787367e+000	1.786956e+000
4.980470250000005e-005	0.000000e+000	2.588907e+000	1.787367e+000	1.786956e+000
4.980471850000009e-005	0.000000e+000	2.588903e+000	1.787367e+000	1.786956e+000
4.980481450000036e-005	0.000000e+000	2.588882e+000	1.787367e+000	1.786956e+000
4.980596650000356e-005	0.000000e+000	2.588625e+000	1.787367e+000	1.786956e+000
4.980711850000676e-005	0.000000e+000	2.588368e+000	1.787367e+000	1.786956e+000
4.980827050000997e-005	0.000000e+000	2.588111e+000	1.787367e+000	1.786956e+000
4.980942250001317e-005	0.000000e+000	2.587854e+000	1.787367e+000	1.786956e+000
4.981057450001637e-005	0.000000e+000	2.587597e+000	1.787367e+000	1.786956e+000
4.981172650001958e-005	0.000000e+000	2.587340e+000	1.787367e+000	1.786956e+000
4.981287850002278e-005	0.000000e+000	2.587083e+000	1.787367e+000	1.786956e+000
4.987022250018222e-005	0.000000e+000	2.574272e+000	1.787363e+000	1.786957e+000
4.993575850036444e-005	0.000000e+000	2.559611e+000	1.787360e+000	1.786958e+000
4.993575950036444e-005	0.000000e+000	2.559611e+000	1.787360e+000	1.786958e+000
4.993576150036445e-005	0.000000e+000	2.559610e+000	1.787360e+000	1.786958e+000
4.993576550036446e-005	0.000000e+000	2.559610e+000	1.787360e+000	1.786958e+000
4.993577350036448e-005	0.000000e+000	2.559608e+000	1.787360e+000	1.786958e+000
4.993578950036453e-005	0.000000e+000	2.559604e+000	1.787360e+000	1.786958e+000
4.993588550036479e-005	0.000000e+000	2.559583e+000	1.787360e+000	1.786958e+000
4.993678150036729e-005	0.000000e+000	2.559382e+000	1.787360e+000	1.786958e+000
4.995214150040999e-005	0.000000e+000	2.555940e+000	1.787359e+000	1.786958e+000
4.996852550045555e-005	0.000000e+000	2.552268e+000	1.787358e+000	1.786958e+000
4.996852650045555e-005	0.000000e+000	2.552268e+000	1.787358e+000	1.786958e+000
4.996852850045556e-005	0.000000e+000	2.552267e+000	1.787358e+000	1.786958e+000
4.996853250045557e-005	0.000000e+000	2.552266e+000	1.787358e+000	1.786958e+000
4.996854050045559e-005	0.000000e+000	2.552264e+000	1.787358e+000	1.786958e+000
4.996855650045564e-005	0.000000e+000	2.552261e+000	1.787358e+000	1.786958e+000
4.996858850045572e-005	0.000000e+000	2.552254e+000	1.787358e+000	1.786958e+000
4.996865250045590e-005	0.000000e+000	2.552239e+000	1.787358e+000	1.786958e+000
4.996954850045839e-005	0.000000e+000	2.552038e+000	1.787358e+000	1.786958e+000
4.997671650047832e-005	0.000000e+000	2.550431e+000	1.787358e+000	1.786958e+000
4.998490850050110e-005	0.000000e+000	2.548594e+000	1.787357e+000	1.786959e+000
4.998490950050110e-005	0.000000e+000	2.548593e+000	1.787357e+000	1.786959e+000
4.998491150050111e-005	0.000000e+000	2.548593e+000	1.787357e+000	1.786959e+000
4.998491550050112e-005	0.000000e+000	2.548592e+000	1.787357e+000	1.786959e+000
4.998492350050114e-005	0.000000e+000	2.548590e+000	1.787357e+000	1.786959e+000
4.998493950050119e-005	0.000000e+000	2.548586e+000	1.787357e+000	1.786959e+000
4.998497150050128e-005	0.000000e+000	2.548579e+000	1.787357e+000	1.786959e+000
4.998503550050145e-005	0.000000e+000	2.548565e+000	1.787357e+000	1.786959e+000
4.998516350050181e-005	0.000000e+000	2.548536e+000	1.787357e+000	1.786959e+000
4.998900350051249e-005	0.000000e+000	2.547675e+000	1.787357e+000	1.786959e+000
4.999309950052388e-005	0.000000e+000	2.546756e+000	1.787357e+000	1.786959e+000
4.999310050052388e-005	0.000000e+000	2.546756e+000	1.787357e+000	1.786959e+000
4.999310250052388e-005	0.000000e+000	2.546755e+000	1.787357e+000	1.786959e+000
4.999310650052390e-005	0.000000e+000	2.546754e+000	1.787357e+000	1.786959e+000
4.999311450052392e-005	0.000000e+000	2.546752e+000	1.787357e+000	1.786959e+000
4.999313050052396e-005	0.000000e+000	2.546749e+000	1.787357e+000	1.786959e+000
4.999322650052423e-005	0.000000e+000	2.546727e+000	1.787357e+000	1.786959e+000
4.999335450052459e-005	0.000000e+000	2.546698e+000	1.787357e+000	1.786959e+000
4.999361050052530e-005	0.000000e+000	2.546641e+000	1.787357e+000	1.786959e+000
4.999514650052957e-005	0.000000e+000	2.546296e+000	1.787357e+000	1.786959e+000
4.999719450053526e-005	0.000000e+000	2.545837e+000	1.787356e+000	1.786959e+000
4.999719550053527e-005	0.000000e+000	2.545836e+000	1.787356e+000	1.786959e+000
4.999719750053527e-005	0.000000e+000	2.545836e+000	1.787356e+000	1.786959e+000
4.999720150053528e-005	0.000000e+000	2.545835e+000	1.787356e+000	1.786959e+000
4.999720950053530e-005	0.000000e+000	2.545833e+000	1.787356e+000	1.786959e+000
4.999722550053535e-005	0.000000e+000	2.545830e+000	1.787356e+000	1.786959e+000
4.999725750053544e-005	0.000000e+000	2.545823e+000	1.787356e+000	1.786959e+000
4.999732150053562e-005	0.000000e+000	2.545808e+000	1.787356e+000	1.786959e+000
4.999744950053597e-005	0.000000e+000	2.545779e+000	1.787356e+000	1.786959e+000
4.999821750053811e-005	0.000000e+000	2.545607e+000	1.787356e+000	1.786959e+000
4.999897599999716e-005	0.000000e+000	2.545437e+000	1.787356e+000	1.786959e+000
4.999897699999716e-005	0.000000e+000	2.545437e+000	1.787356e+000	1.786959e+000
4.999897899999716e-005	0.000000e+000	2.545436e+000	1.787356e+000	1.786959e+000
4.999898299999718e-005	0.000000e+000	2.545435e+000	1.787356e+000	1.786959e+000
4.999899099999720e-005	0.000000e+000	2.545434e+000	1.787356e+000	1.786959e+000
4.999900699999724e-005	0.000000e+000	2.545430e+000	1.787356e+000	1.786959e+000
4.999903899999733e-005	0.000000e+000	2.545423e+000	1.787356e+000	1.786959e+000
4.999910299999751e-005	0.000000e+000	2.545408e+000	1.787356e+000	1.786959e+000
4.999923099999786e-005	0.000000e+000	2.545380e+000	1.787356e+000	1.786959e+000
4.999948699999858e-005	0.000000e+000	2.545322e+000	1.787356e+000	1.786959e+000
4.999948799999858e-005	0.000000e+000	2.545322e+000	1.787356e+000	1.786959e+000
4.999948999999858e-005	0.000000e+000	2.545321e+000	1.787356e+000	1.786959e+000
4.999949399999860e-005	0.000000e+000	2.545321e+000	1.787356e+000	1.786959e+000
4.999950199999862e-005	0.000000e+000	2.545319e+000	1.787356e+000	1.786959e+000
4.999951799999866e-005	0.000000e+000	2.545315e+000	1.787356e+000	1.786959e+000
4.999954999999875e-005	0.000000e+000	2.545308e+000	1.787356e+000	1.786959e+000
4.999961399999893e-005	0.000000e+000	2.545294e+000	1.787356e+000	1.786959e+000
4.999974199999929e-005	0.000000e+000	2.545265e+000	1.787356e+000	1.786959e+000
4.999974399999929e-005	0.000000e+000	2.545264e+000	1.787356e+000	1.786959e+000
4.999974799999930e-005	0.000000e+000	2.545264e+000	1.787356e+000	1.786959e+000
4.999975599999932e-005	0.000000e+000	2.545262e+000	1.787356e+000	1.786959e+000
4.999977199999937e-005	0.000000e+000	2.545258e+000	1.787356e+000	1.786959e+000
4.999980399999946e-005	0.000000e+000	2.545251e+000	1.787356e+000	1.786959e+000
4.999986799999964e-005	0.000000e+000	2.545237e+000	1.787356e+000	1.786959e+000
4.999987199999965e-005	0.000000e+000	2.545236e+000	1.787356e+000	1.786959e+000
4.999987999999967e-005	0.000000e+000	2.545234e+000	1.787356e+000	1.786959e+000
4.999989599999971e-005	0.000000e+000	2.545230e+000	1.787356e+000	1.786959e+000
4.999992799999980e-005	0.000000e+000	2.545223e+000	1.787356e+000	1.786959e+000
4.999993599999982e-005	0.000000e+000	2.545221e+000	1.787356e+000	1.786959e+000
4.999995199999987e-005	0.000000e+000	2.545218e+000	1.787356e+000	1.786959e+000
4.999996799999991e-005	0.000000e+000	2.545214e+000	1.787356e+000	1.786959e+000
4.999996899999992e-005	0.000000e+000	2.545214e+000	1.787356e+000	1.786959e+000
4.999997099999992e-005	0.000000e+000	2.545214e+000	1.787356e+000	1.786959e+000
4.999997499999993e-005	0.000000e+000	2.545213e+000	1.787356e+000	1.786959e+000
4.999998299999996e-005	0.000000e+000	2.545211e+000	1.787356e+000	1.786959e+000
4.999998399999996e-005	0.000000e+000	2.545211e+000	1.787356e+000	1.786959e+000
4.999998599999996e-005	0.000000e+000	2.545210e+000	1.787356e+000	1.786959e+000
4.999998999999998e-005	0.000000e+000	2.545209e+000	1.787356e+000	1.786959e+000
4.999999199999998e-005	0.000000e+000	2.545209e+000	1.787356e+000	1.786959e+000
4.999999599999999e-005	0.000000e+000	2.545208e+000	1.787356e+000	1.786959e+000
4.999999800000000e-005	0.000000e+000	2.545208e+000	1.787356e+000	1.786959e+000
4.999999900000000e-005	0.000000e+000	2.545207e+000	1.787356e+000	1.786959e+000
5.000000000000000e-005	0.000000e+000	2.545207e+000	1.787356e+000	1.786959e+000
5.000000010000000e-005	1.000000e-001	2.545207e+000	1.787356e+000	1.786959e+000
5.000000030000000e-005	3.000000e-001	2.545207e+000	1.787357e+000	1.786959e+000
5.000000070000000e-005	7.000000e-001	2.545207e+000	1.787358e+000	1.786959e+000
5.000000100000001e-005	1.000000e+000	2.545207e+000	1.787361e+000	1.786959e+000
5.000000108000000e-005	1.000000e+000	2.545207e+000	1.787361e+000	1.786959e+000
5.000000124000000e-005	1.000000e+000	2.545207e+000	1.787363e+000	1.786959e+000
5.000000156000000e-005	1.000000e+000	2.545207e+000	1.787365e+000	1.786959e+000
5.000000220000000e-005	1.000000e+000	2.545207e+000	1.787371e+000	1.786959e+000
5.000000348000001e-005	1.000000e+000	2.545206e+000	1.787382e+000	1.786959e+000
5.000000604000002e-005	1.000000e+000	2.545206e+000	1.787403e+000	1.786959e+000
5.000004188000012e-005	1.000000e+000	2.545198e+000	1.787707e+000	1.786961e+000
5.000008284000023e-005	1.000000e+000	2.545188e+000	1.788055e+000	1.786963e+000
5.000032860000092e-005	1.000000e+000	2.545133e+000	1.790138e+000	1.786974e+000
5.001226551431982e-005	1.000000e+000	2.542454e+000	1.885363e+000	1.787511e+000
5.002420242863873e-005	1.000000e+000	2.539773e+000	1.973598e+000	1.788046e+000
5.003613934295763e-005	1.000000e+000	2.537090e+000	2.054842e+000	1.788578e+000
5.004807625727653e-005	1.000000e+000	2.534407e+000	2.129097e+000	1.789108e+000
5.006001317159544e-005	1.000000e+000	2.531722e+000	2.196360e+000	1.789636e+000
5.007195008591434e-005	1.000000e+000	2.529036e+000	2.256633e+000	1.790160e+000
5.008388700023325e-005	1.000000e+000	2.526349e+000	2.309916e+000	1.790683e+000
5.016777308046649e-005	1.000000e+000	2.507440e+000	2.597832e+000	1.794229e+000
5.027656318746846e-005	1.000000e+000	2.482848e+000	2.762961e+000	1.798378e+000
5.041030671040942e-005	1.000000e+000	2.452510e+000	2.748883e+000	1.802568e+000
5.055512667783385e-005	1.000000e+000	2.419531e+000	2.607228e+000	1.806025e+000
5.069911038382483e-005	1.000000e+000	2.386604e+000	2.454644e+000	1.808669e+000
5.086169453582619e-005	1.000000e+000	2.349253e+000	2.346835e+000	1.811257e+000
5.105700703582619e-005	1.000000e+000	2.304166e+000	2.297539e+000	1.814289e+000
5.125231953582619e-005	1.000000e+000	2.258851e+000	2.281929e+000	1.817292e+000
5.144763203582619e-005	1.000000e+000	2.213301e+000	2.258478e+000	1.820107e+000
5.164294453582619e-005	1.000000e+000	2.167522e+000	2.215348e+000	1.822584e+000
5.183825703582618e-005	1.000000e+000	2.121518e+000	2.162683e+000	1.824684e+000
5.203356953582618e-005	1.000000e+000	2.075294e+000	2.111393e+000	1.826440e+000
5.242419453582618e-005	1.000000e+000	1.982204e+000	2.019559e+000	1.829041e+000
5.261950703582618e-005	1.000000e+000	1.935348e+000	1.974122e+000	1.829889e+000
5.301013203582618e-005	1.000000e+000	1.841040e+000	1.879947e+000	1.830651e+000
