time	V(logic)	V(signal_in)	V(signal_out)	V(vc)
0.000000000000000e+000	0.000000e+000	0.000000e+000	0.000000e+000	0.000000e+000
1.000000000000000e-012	1.000000e+000	2.261947e-005	1.200389e-014	6.368354e-018
2.977646977903089e-010	1.000000e+000	6.735338e-003	-3.840186e-006	-2.177455e-009
5.945293955806177e-010	1.000000e+000	1.344794e-002	2.416533e-007	2.206888e-011
8.912940933709266e-010	1.000000e+000	2.016042e-002	1.224552e-005	6.598573e-009
1.188058791161236e-009	1.000000e+000	2.687278e-002	3.217141e-005	1.755206e-008
1.484823488951545e-009	1.000000e+000	3.358503e-002	6.001932e-005	3.288252e-008
1.781588186741853e-009	1.000000e+000	4.029715e-002	9.578926e-005	5.258996e-008
2.078352884532161e-009	1.000000e+000	4.700916e-002	1.394812e-004	7.667438e-008
2.604054986737596e-009	1.000000e+000	5.889827e-002	2.711623e-004	1.503702e-007
3.240745297093312e-009	1.000000e+000	7.329609e-002	5.164537e-004	2.894566e-007
4.048428310663898e-009	1.000000e+000	9.155801e-002	9.921121e-004	5.635389e-007
5.045257928726214e-009	1.000000e+000	1.140915e-001	1.885784e-003	1.088917e-006
6.305718698666737e-009	1.000000e+000	1.425742e-001	3.596800e-003	2.120038e-006
7.874990831551676e-009	1.000000e+000	1.780166e-001	6.740339e-003	4.068864e-006
9.583975206551676e-009	1.000000e+000	2.165868e-001	1.159010e-002	7.168257e-006
1.129295958155168e-008	1.000000e+000	2.551216e-001	1.815043e-002	1.149520e-005
1.300194395655168e-008	1.000000e+000	2.936140e-001	2.662136e-002	1.726360e-005
1.471092833155168e-008	1.000000e+000	3.320577e-001	3.713522e-002	2.465618e-005
1.641991270655168e-008	1.000000e+000	3.704462e-001	4.978815e-002	3.384297e-005
1.812889708155168e-008	1.000000e+000	4.087733e-001	6.464265e-002	4.498066e-005
1.983788145655168e-008	1.000000e+000	4.470325e-001	8.173026e-002	5.821217e-005
2.154686583155168e-008	1.000000e+000	4.852174e-001	1.010543e-001	7.366644e-005
2.325585020655168e-008	1.000000e+000	5.233217e-001	1.225925e-001	9.145834e-005
2.496483458155168e-008	1.000000e+000	5.613393e-001	1.463001e-001	1.116888e-004
2.667381895655169e-008	1.000000e+000	5.992635e-001	1.721122e-001	1.344450e-004
2.838280333155169e-008	1.000000e+000	6.370884e-001	1.999466e-001	1.598007e-004
3.009178770655169e-008	1.000000e+000	6.748074e-001	2.297063e-001	1.878167e-004
3.180077208155169e-008	1.000000e+000	7.124144e-001	2.612821e-001	2.185416e-004
3.350975645655169e-008	1.000000e+000	7.499031e-001	2.945547e-001	2.520120e-004
3.692772520655170e-008	1.000000e+000	8.245008e-001	3.656769e-001	3.272808e-004
4.034569395655170e-008	1.000000e+000	8.985509e-001	4.419991e-001	4.137065e-004
4.547264708155171e-008	1.000000e+000	1.008492e+000	5.638110e-001	5.641000e-004
4.889061583155171e-008	1.000000e+000	1.080959e+000	6.483301e-001	6.779058e-004
5.230858458155171e-008	1.000000e+000	1.152708e+000	7.343297e-001	8.022041e-004
5.572655333155172e-008	1.000000e+000	1.223692e+000	8.209245e-001	9.366415e-004
5.914452208155172e-008	1.000000e+000	1.293863e+000	9.073530e-001	1.080836e-003
6.109764708155172e-008	1.000000e+000	1.333599e+000	9.565879e-001	1.167638e-003
6.305077208155173e-008	1.000000e+000	1.373024e+000	1.005279e+000	1.257248e-003
6.500389708155173e-008	1.000000e+000	1.412139e+000	1.053426e+000	1.349666e-003
6.695702208155173e-008	1.000000e+000	1.450944e+000	1.101029e+000	1.444891e-003
6.891014708155173e-008	1.000000e+000	1.489439e+000	1.148089e+000	1.542924e-003
7.086327208155174e-008	1.000000e+000	1.527623e+000	1.194604e+000	1.643765e-003
7.281639708155173e-008	1.000000e+000	1.565496e+000	1.240576e+000	1.747414e-003
7.794335020655174e-008	1.000000e+000	1.663224e+000	1.357427e+000	2.031147e-003
8.184960020655174e-008	1.000000e+000	1.736171e+000	1.442643e+000	2.259340e-003
8.575585020655174e-008	1.000000e+000	1.807463e+000	1.525125e+000	2.496061e-003
8.966210020655176e-008	1.000000e+000	1.877098e+000	1.604872e+000	2.741309e-003
9.356835020655176e-008	1.000000e+000	1.945077e+000	1.681884e+000	2.995084e-003
9.747460020655176e-008	1.000000e+000	2.011400e+000	1.756162e+000	3.257387e-003
1.013808502065518e-007	1.000000e+000	2.076066e+000	1.827705e+000	3.528217e-003
1.052871002065518e-007	1.000000e+000	2.139076e+000	1.896514e+000	3.807575e-003
1.165175689565517e-007	1.000000e+000	2.311537e+000	2.086048e+000	4.666739e-003
1.277480377065517e-007	1.000000e+000	2.465084e+000	2.259264e+000	5.569868e-003
1.389785064565516e-007	1.000000e+000	2.599717e+000	2.416160e+000	6.516963e-003
1.502089752065515e-007	1.000000e+000	2.715437e+000	2.556737e+000	7.508024e-003
1.614394439565515e-007	1.000000e+000	2.812244e+000	2.680995e+000	8.543050e-003
1.726699127065514e-007	1.000000e+000	2.890136e+000	2.788934e+000	9.622041e-003
1.839003814565514e-007	1.000000e+000	2.949116e+000	2.880553e+000	1.074500e-002
1.871468053853773e-007	1.000000e+000	2.961676e+000	2.902206e+000	1.106870e-002
1.903932293142033e-007	1.000000e+000	2.972461e+000	2.922072e+000	1.139318e-002
1.936396532430292e-007	1.000000e+000	2.981468e+000	2.940152e+000	1.171843e-002
1.968860771718551e-007	1.000000e+000	2.988700e+000	2.956446e+000	1.204445e-002
2.001325011006811e-007	1.000000e+000	2.994155e+000	2.970954e+000	1.237125e-002
2.033789250295071e-007	1.000000e+000	2.997834e+000	2.983676e+000	1.269882e-002
2.066253489583330e-007	1.000000e+000	2.999736e+000	2.994612e+000	1.302717e-002
2.073179920797694e-007	1.000000e+000	2.999912e+000	2.996710e+000	1.309713e-002
2.073189920797694e-007	1.000000e+000	2.999912e+000	2.996712e+000	1.309724e-002
2.073209920797694e-007	1.000000e+000	2.999913e+000	2.996718e+000	1.309744e-002
2.073249920797694e-007	1.000000e+000	2.999913e+000	2.996730e+000	1.309784e-002
2.073329920797694e-007	1.000000e+000	2.999915e+000	2.996754e+000	1.309865e-002
2.073489920797694e-007	1.000000e+000	2.999917e+000	2.996801e+000	1.310027e-002
2.073809920797695e-007	1.000000e+000	2.999923e+000	2.996895e+000	1.310350e-002
2.074449920797695e-007	1.000000e+000	2.999932e+000	2.997082e+000	1.310996e-002
2.075729920797697e-007	1.000000e+000	2.999949e+000	2.997454e+000	1.312289e-002
2.078289920797700e-007	1.000000e+000	2.999978e+000	2.998193e+000	1.314875e-002
2.078299920797700e-007	1.000000e+000	2.999978e+000	2.998196e+000	1.314886e-002
2.078319920797700e-007	1.000000e+000	2.999979e+000	2.998202e+000	1.314906e-002
2.078359920797700e-007	1.000000e+000	2.999979e+000	2.998213e+000	1.314946e-002
2.078439920797700e-007	1.000000e+000	2.999979e+000	2.998236e+000	1.315027e-002
2.078599920797700e-007	1.000000e+000	2.999981e+000	2.998282e+000	1.315189e-002
2.078919920797700e-007	1.000000e+000	2.999983e+000	2.998373e+000	1.315512e-002
2.079559920797701e-007	1.000000e+000	2.999988e+000	2.998555e+000	1.316158e-002
2.080839920797703e-007	1.000000e+000	2.999995e+000	2.998917e+000	1.317451e-002
2.080849920797703e-007	1.000000e+000	2.999995e+000	2.998919e+000	1.317462e-002
2.080869920797703e-007	1.000000e+000	2.999995e+000	2.998925e+000	1.317482e-002
2.080909920797703e-007	1.000000e+000	2.999995e+000	2.998936e+000	1.317522e-002
2.080989920797703e-007	1.000000e+000	2.999995e+000	2.998959e+000	1.317603e-002
2.081149920797703e-007	1.000000e+000	2.999996e+000	2.999004e+000	1.317765e-002
2.081469920797703e-007	1.000000e+000	2.999997e+000	2.999094e+000	1.318088e-002
2.082109920797704e-007	1.000000e+000	2.999999e+000	2.999273e+000	1.318734e-002
2.082119920797704e-007	1.000000e+000	2.999999e+000	2.999275e+000	1.318744e-002
2.082139920797704e-007	1.000000e+000	2.999999e+000	2.999281e+000	1.318765e-002
2.082179920797704e-007	1.000000e+000	2.999999e+000	2.999292e+000	1.318805e-002
2.082259920797704e-007	1.000000e+000	2.999999e+000	2.999315e+000	1.318886e-002
2.082419920797704e-007	1.000000e+000	2.999999e+000	2.999359e+000	1.319048e-002
2.082739920797705e-007	1.000000e+000	3.000000e+000	2.999448e+000	1.319371e-002
2.082749920797705e-007	1.000000e+000	3.000000e+000	2.999451e+000	1.319381e-002
2.082769920797705e-007	1.000000e+000	3.000000e+000	2.999457e+000	1.319401e-002
2.082809920797705e-007	1.000000e+000	3.000000e+000	2.999468e+000	1.319441e-002
2.082889920797705e-007	1.000000e+000	3.000000e+000	2.999490e+000	1.319522e-002
2.083049920797705e-007	1.000000e+000	3.000000e+000	2.999535e+000	1.319684e-002
2.083059920797705e-007	1.000000e+000	3.000000e+000	2.999537e+000	1.319694e-002
2.083079920797705e-007	1.000000e+000	3.000000e+000	2.999543e+000	1.319714e-002
2.083119920797705e-007	1.000000e+000	3.000000e+000	2.999554e+000	1.319755e-002
2.083199920797705e-007	1.000000e+000	3.000000e+000	2.999576e+000	1.319836e-002
2.083209920797705e-007	1.000000e+000	3.000000e+000	2.999579e+000	1.319846e-002
2.083229920797705e-007	1.000000e+000	3.000000e+000	2.999584e+000	1.319866e-002
2.083269920797705e-007	1.000000e+000	3.000000e+000	2.999596e+000	1.319906e-002
2.083279920797705e-007	1.000000e+000	3.000000e+000	2.999598e+000	1.319916e-002
2.083299920797705e-007	1.000000e+000	3.000000e+000	2.999604e+000	1.319936e-002
2.083313333333330e-007	1.000000e+000	3.000000e+000	2.999608e+000	1.319950e-002
2.083326508262081e-007	1.000000e+000	3.000000e+000	2.999611e+000	1.319963e-002
2.083336508262081e-007	1.000000e+000	3.000000e+000	2.999614e+000	1.319973e-002
2.083343333333330e-007	1.000000e+000	3.000000e+000	2.999616e+000	1.319980e-002
2.083344333333330e-007	9.000000e-001	3.000000e+000	2.999616e+000	1.319981e-002
2.083346333333330e-007	7.000000e-001	3.000000e+000	2.999610e+000	1.319983e-002
2.083350333333330e-007	3.000000e-001	3.000000e+000	2.999571e+000	1.319985e-002
2.083353333333330e-007	0.000000e+000	3.000000e+000	2.999522e+000	1.319985e-002
2.083354133333330e-007	0.000000e+000	3.000000e+000	2.999507e+000	1.319985e-002
2.083355733333330e-007	0.000000e+000	3.000000e+000	2.999477e+000	1.319985e-002
2.083358933333330e-007	0.000000e+000	3.000000e+000	2.999417e+000	1.319985e-002
2.083365333333330e-007	0.000000e+000	3.000000e+000	2.999297e+000	1.319985e-002
2.083378133333330e-007	0.000000e+000	3.000000e+000	2.999057e+000	1.319985e-002
2.083403733333330e-007	0.000000e+000	3.000000e+000	2.998577e+000	1.319985e-002
2.083454933333330e-007	0.000000e+000	3.000000e+000	2.997617e+000	1.319985e-002
2.083557333333330e-007	0.000000e+000	3.000000e+000	2.995699e+000	1.319985e-002
2.083762133333330e-007	0.000000e+000	3.000000e+000	2.991866e+000	1.319985e-002
2.084171733333331e-007	0.000000e+000	2.999999e+000	2.984220e+000	1.319986e-002
2.084990933333332e-007	0.000000e+000	2.999997e+000	2.969001e+000	1.319986e-002
2.086629333333333e-007	0.000000e+000	2.999988e+000	2.938853e+000	1.319986e-002
2.089906133333337e-007	0.000000e+000	2.999954e+000	2.879699e+000	1.319987e-002
2.096459733333345e-007	0.000000e+000	2.999816e+000	2.765790e+000	1.319989e-002
2.109566933333360e-007	0.000000e+000	2.999318e+000	2.551572e+000	1.319993e-002
2.126656777083359e-007	0.000000e+000	2.998275e+000	2.294583e+000	1.319999e-002
2.143746620833359e-007	0.000000e+000	2.996764e+000	2.062187e+000	1.320004e-002
2.160836464583359e-007	0.000000e+000	2.994755e+000	1.853476e+000	1.320009e-002
2.177926308333359e-007	0.000000e+000	2.992249e+000	1.666035e+000	1.320015e-002
2.195016152083359e-007	0.000000e+000	2.989246e+000	1.497697e+000	1.320020e-002
2.212105995833359e-007	0.000000e+000	2.985747e+000	1.346514e+000	1.320026e-002
2.229195839583359e-007	0.000000e+000	2.981752e+000	1.210740e+000	1.320032e-002
2.246285683333359e-007	0.000000e+000	2.977262e+000	1.088802e+000	1.320037e-002
2.263375527083358e-007	0.000000e+000	2.972278e+000	9.792921e-001	1.320043e-002
2.280465370833358e-007	0.000000e+000	2.966800e+000	8.809424e-001	1.320049e-002
2.297555214583358e-007	0.000000e+000	2.960829e+000	7.926159e-001	1.320055e-002
2.314645058333358e-007	0.000000e+000	2.954367e+000	7.132910e-001	1.320061e-002
2.331734902083358e-007	0.000000e+000	2.947415e+000	6.420504e-001	1.320066e-002
2.348824745833358e-007	0.000000e+000	2.939973e+000	5.780702e-001	1.320072e-002
2.365914589583358e-007	0.000000e+000	2.932043e+000	5.206103e-001	1.320078e-002
2.383004433333358e-007	0.000000e+000	2.923626e+000	4.690063e-001	1.320084e-002
2.400094277083358e-007	0.000000e+000	2.914724e+000	4.226614e-001	1.320090e-002
2.417184120833358e-007	0.000000e+000	2.905338e+000	3.810395e-001	1.320096e-002
2.434273964583358e-007	0.000000e+000	2.895469e+000	3.436594e-001	1.320102e-002
2.451363808333358e-007	0.000000e+000	2.885120e+000	3.100886e-001	1.320108e-002
2.468453652083358e-007	0.000000e+000	2.874291e+000	2.799390e-001	1.320114e-002
2.485543495833359e-007	0.000000e+000	2.862986e+000	2.528619e-001	1.320119e-002
2.502633339583359e-007	0.000000e+000	2.851205e+000	2.285441e-001	1.320125e-002
2.519723183333359e-007	0.000000e+000	2.838951e+000	2.067045e-001	1.320131e-002
2.536813027083359e-007	0.000000e+000	2.826225e+000	1.870903e-001	1.320137e-002
2.553902870833359e-007	0.000000e+000	2.813030e+000	1.694749e-001	1.320143e-002
2.570992714583359e-007	0.000000e+000	2.799368e+000	1.536545e-001	1.320149e-002
2.588082558333359e-007	0.000000e+000	2.785241e+000	1.394461e-001	1.320155e-002
2.605172402083360e-007	0.000000e+000	2.770652e+000	1.266855e-001	1.320161e-002
2.622262245833360e-007	0.000000e+000	2.755603e+000	1.152250e-001	1.320167e-002
2.639352089583360e-007	0.000000e+000	2.740096e+000	1.049322e-001	1.320172e-002
2.656441933333360e-007	0.000000e+000	2.724135e+000	9.568805e-002	1.320178e-002
2.673531777083360e-007	0.000000e+000	2.707721e+000	8.738565e-002	1.320184e-002
2.690621620833360e-007	0.000000e+000	2.690857e+000	7.992903e-002	1.320190e-002
2.707711464583361e-007	0.000000e+000	2.673547e+000	7.323196e-002	1.320195e-002
2.724801308333361e-007	0.000000e+000	2.655793e+000	6.721701e-002	1.320201e-002
2.741891152083361e-007	0.000000e+000	2.637598e+000	6.181467e-002	1.320207e-002
2.758980995833361e-007	0.000000e+000	2.618964e+000	5.696247e-002	1.320213e-002
2.776070839583361e-007	0.000000e+000	2.599897e+000	5.260434e-002	1.320218e-002
2.793160683333361e-007	0.000000e+000	2.580397e+000	4.868992e-002	1.320224e-002
2.810250527083361e-007	0.000000e+000	2.560469e+000	4.517396e-002	1.320230e-002
2.827340370833362e-007	0.000000e+000	2.540116e+000	4.201584e-002	1.320235e-002
2.844430214583362e-007	0.000000e+000	2.519341e+000	3.917909e-002	1.320241e-002
2.861520058333362e-007	0.000000e+000	2.498148e+000	3.663093e-002	1.320246e-002
2.878609902083362e-007	0.000000e+000	2.476540e+000	3.434194e-002	1.320252e-002
2.895699745833362e-007	0.000000e+000	2.454521e+000	3.228569e-002	1.320257e-002
2.912789589583362e-007	0.000000e+000	2.432095e+000	3.043845e-002	1.320263e-002
2.929879433333363e-007	0.000000e+000	2.409264e+000	2.877891e-002	1.320268e-002
2.964059120833363e-007	0.000000e+000	2.362407e+000	2.594828e-002	1.320279e-002
2.998238808333363e-007	0.000000e+000	2.313981e+000	2.366292e-002	1.320289e-002
3.032418495833363e-007	0.000000e+000	2.264018e+000	2.181724e-002	1.320300e-002
3.066598183333364e-007	0.000000e+000	2.212552e+000	2.032610e-002	1.320310e-002
3.100777870833364e-007	0.000000e+000	2.159616e+000	1.912082e-002	1.320320e-002
3.152047402083364e-007	0.000000e+000	2.077535e+000	1.773069e-002	1.320335e-002
3.203316933333365e-007	0.000000e+000	1.992350e+000	1.671769e-002	1.320350e-002
3.239938027083365e-007	0.000000e+000	1.929547e+000	1.620726e-002	1.320360e-002
3.276559120833366e-007	0.000000e+000	1.865398e+000	1.576211e-002	1.320370e-002
3.313180214583366e-007	0.000000e+000	1.799904e+000	1.538225e-002	1.320380e-002
3.349801308333366e-007	0.000000e+000	1.733063e+000	1.506766e-002	1.320389e-002
3.386422402083366e-007	0.000000e+000	1.664877e+000	1.481835e-002	1.320399e-002
3.423043495833367e-007	0.000000e+000	1.595346e+000	1.463433e-002	1.320408e-002
3.459664589583367e-007	0.000000e+000	1.524468e+000	1.451558e-002	1.320416e-002
3.535348183333368e-007	0.000000e+000	1.373332e+000	1.431965e-002	1.320434e-002
3.611031777083369e-007	0.000000e+000	1.219012e+000	1.415088e-002	1.320450e-002
3.686715370833369e-007	0.000000e+000	1.061507e+000	1.400927e-002	1.320466e-002
3.762398964583370e-007	0.000000e+000	9.008182e-001	1.389482e-002	1.320480e-002
3.838082558333371e-007	0.000000e+000	7.369453e-001	1.380753e-002	1.320493e-002
3.913766152083371e-007	0.000000e+000	5.698882e-001	1.374740e-002	1.320504e-002
3.989449745833372e-007	0.000000e+000	3.996469e-001	1.371442e-002	1.320515e-002
4.014766448809557e-007	0.000000e+000	3.427708e-001	1.369570e-002	1.320518e-002
4.040083151785742e-007	0.000000e+000	2.858227e-001	1.367713e-002	1.320521e-002
4.065399854761928e-007	0.000000e+000	2.288024e-001	1.365871e-002	1.320524e-002
4.090716557738114e-007	0.000000e+000	1.717100e-001	1.364045e-002	1.320527e-002
4.116033260714299e-007	0.000000e+000	1.145454e-001	1.362234e-002	1.320530e-002
4.141349963690484e-007	0.000000e+000	5.730878e-002	1.360438e-002	1.320532e-002
4.166666666666670e-007	0.000000e+000	-6.293944e-015	1.358658e-002	1.320534e-002
4.166667666666670e-007	1.000000e-001	-2.261947e-006	1.358658e-002	1.320534e-002
4.166669666666670e-007	3.000000e-001	-6.785840e-006	1.358841e-002	1.320535e-002
4.166673666666669e-007	7.000000e-001	-1.583363e-005	1.359997e-002	1.320535e-002
4.166676666666670e-007	1.000000e+000	-2.261947e-005	1.361420e-002	1.320536e-002
4.166682266666669e-007	1.000000e+000	-3.528637e-005	1.364565e-002	1.320538e-002
4.168553809523765e-007	1.000000e+000	-4.268639e-003	2.404043e-002	1.321094e-002
4.170425352380860e-007	1.000000e+000	-8.501940e-003	3.422875e-002	1.321646e-002
4.172296895237956e-007	1.000000e+000	-1.273519e-002	4.421060e-002	1.322196e-002
4.174168438095051e-007	1.000000e+000	-1.696839e-002	5.398600e-002	1.322742e-002
4.176039980952147e-007	1.000000e+000	-2.120154e-002	6.355494e-002	1.323284e-002
4.177911523809242e-007	1.000000e+000	-2.543464e-002	7.291741e-002	1.323823e-002
4.179783066666338e-007	1.000000e+000	-2.966769e-002	8.207342e-002	1.324358e-002
4.192890266666005e-007	1.000000e+000	-5.931054e-002	1.422109e-001	1.328034e-002
4.209980110416006e-007	1.000000e+000	-9.795122e-002	2.110089e-001	1.332639e-002
4.227069954166006e-007	1.000000e+000	-1.365761e-001	2.690289e-001	1.337008e-002
4.244159797916006e-007	1.000000e+000	-1.751783e-001	3.162871e-001	1.341106e-002
4.261249641666006e-007	1.000000e+000	-2.137515e-001	3.532736e-001	1.344899e-002
4.278339485416006e-007	1.000000e+000	-2.522891e-001	3.803159e-001	1.348347e-002
4.295429329166006e-007	1.000000e+000	-2.907849e-001	3.977284e-001	1.351410e-002
4.312519172916006e-007	1.000000e+000	-3.292324e-001	4.058827e-001	1.354054e-002
4.329609016666007e-007	1.000000e+000	-3.676252e-001	4.052127e-001	1.356252e-002
4.346698860416007e-007	1.000000e+000	-4.059570e-001	3.962051e-001	1.357979e-002
4.363788704166007e-007	1.000000e+000	-4.442213e-001	3.793882e-001	1.359219e-002
4.380878547916007e-007	1.000000e+000	-4.824120e-001	3.553226e-001	1.359957e-002
4.397968391666007e-007	1.000000e+000	-5.205225e-001	3.245918e-001	1.360186e-002
4.415058235416007e-007	1.000000e+000	-5.585466e-001	2.877959e-001	1.359901e-002
4.432148079166008e-007	1.000000e+000	-5.964780e-001	2.455518e-001	1.359101e-002
4.449237922916008e-007	1.000000e+000	-6.343103e-001	1.985027e-001	1.357793e-002
4.466327766666008e-007	1.000000e+000	-6.720373e-001	1.473266e-001	1.355986e-002
4.483417610416008e-007	1.000000e+000	-7.096528e-001	9.272442e-002	1.353695e-002
4.500507454166008e-007	1.000000e+000	-7.471504e-001	3.538628e-002	1.350941e-002
4.517597297916008e-007	1.000000e+000	-7.845240e-001	-2.404324e-002	1.347744e-002
4.534687141666008e-007	1.000000e+000	-8.217672e-001	-8.498620e-002	1.344124e-002
4.551776985416009e-007	1.000000e+000	-8.588741e-001	-1.469376e-001	1.340100e-002
4.568866829166009e-007	1.000000e+000	-8.958384e-001	-2.094634e-001	1.335691e-002
4.585956672916009e-007	1.000000e+000	-9.326539e-001	-2.721955e-001	1.330916e-002
4.603046516666009e-007	1.000000e+000	-9.693146e-001	-3.348254e-001	1.325788e-002
4.620136360416009e-007	1.000000e+000	-1.005814e+000	-3.970968e-001	1.320325e-002
4.637226204166009e-007	1.000000e+000	-1.042147e+000	-4.587996e-001	1.314538e-002
4.654316047916009e-007	1.000000e+000	-1.078307e+000	-5.197635e-001	1.308442e-002
4.671405891666010e-007	1.000000e+000	-1.114287e+000	-5.798522e-001	1.302048e-002
