time	V(logic)	V(signal_in)	V(signal_out)	V(vc)
0.000000000000000e+000	0.000000e+000	0.000000e+000	0.000000e+000	0.000000e+000
1.000000000000000e-012	1.000000e+000	1.564513e-007	6.983172e-017	3.704737e-020
1.111271391938802e-009	1.000000e+000	1.738599e-004	-1.135126e-006	-7.749329e-010
2.221542783877604e-009	1.000000e+000	3.475633e-004	2.914865e-007	2.859819e-011
3.331814175816406e-009	1.000000e+000	5.212667e-004	4.279837e-006	2.410593e-009
4.442085567755208e-009	1.000000e+000	6.949701e-004	1.082993e-005	6.371052e-009
5.552356959694010e-009	1.000000e+000	8.686736e-004	1.994175e-005	1.190998e-008
6.662628351632812e-009	1.000000e+000	1.042377e-003	3.161532e-005	1.902736e-008
7.772899743571610e-009	1.000000e+000	1.216080e-003	4.585062e-005	2.772321e-008
9.927659167089875e-009	1.000000e+000	1.553195e-003	9.197613e-005	5.762971e-008
1.280358686593764e-008	1.000000e+000	2.003138e-003	1.843464e-004	1.205636e-007
1.594635451528062e-008	1.000000e+000	2.494828e-003	3.333799e-004	2.288830e-007
2.036292467616436e-008	1.000000e+000	3.185806e-003	6.331838e-004	4.647916e-007
2.584709983673729e-008	1.000000e+000	4.043811e-003	1.150455e-003	9.182924e-007
3.379471130339181e-008	1.000000e+000	5.287224e-003	2.149482e-003	1.931933e-006
4.483708919364360e-008	1.000000e+000	7.014814e-003	3.859018e-003	4.012537e-006
5.773364588378125e-008	1.000000e+000	9.032490e-003	6.097074e-003	7.404671e-006
7.239049847825949e-008	1.000000e+000	1.132556e-002	8.688183e-003	1.250362e-005
9.076334624333209e-008	1.000000e+000	1.419999e-002	1.176493e-002	2.072572e-005
1.526988579973837e-007	1.000000e+000	2.388966e-002	2.139734e-002	6.153125e-005
2.021908184119844e-007	1.000000e+000	3.163234e-002	2.911588e-002	1.104246e-004
2.871533993612543e-007	1.000000e+000	4.492350e-002	4.242834e-002	2.271400e-004
4.168853593683372e-007	1.000000e+000	6.521559e-002	6.271785e-002	4.902345e-004
6.610259843683372e-007	1.000000e+000	1.033937e-001	1.008962e-001	1.205175e-003
9.051666093683372e-007	1.000000e+000	1.415562e-001	1.390595e-001	2.188006e-003
1.149307234368337e-006	1.000000e+000	1.796957e-001	1.772004e-001	3.472088e-003
1.393447859368337e-006	1.000000e+000	2.178061e-001	2.153127e-001	5.054767e-003
1.637588484368337e-006	1.000000e+000	2.558812e-001	2.533898e-001	6.933362e-003
1.881729109368337e-006	1.000000e+000	2.939148e-001	2.914262e-001	9.105165e-003
2.125869734368337e-006	1.000000e+000	3.319008e-001	3.294149e-001	1.156744e-002
2.370010359368338e-006	1.000000e+000	3.698329e-001	3.673508e-001	1.431741e-002
2.614150984368338e-006	1.000000e+000	4.077051e-001	4.052265e-001	1.735230e-002
2.858291609368338e-006	1.000000e+000	4.455113e-001	4.430371e-001	2.066927e-002
3.102432234368338e-006	1.000000e+000	4.832452e-001	4.807754e-001	2.426549e-002
3.346572859368338e-006	1.000000e+000	5.209007e-001	5.184361e-001	2.813809e-002
3.590713484368339e-006	1.000000e+000	5.584719e-001	5.560125e-001	3.228415e-002
3.834854109368339e-006	1.000000e+000	5.959525e-001	5.934991e-001	3.670076e-002
4.078994734368339e-006	1.000000e+000	6.333364e-001	6.308892e-001	4.138496e-002
4.323135359368339e-006	1.000000e+000	6.706178e-001	6.681771e-001	4.633378e-002
4.811416609368340e-006	1.000000e+000	7.448483e-001	7.424220e-001	5.701324e-002
5.299697859368340e-006	1.000000e+000	8.185958e-001	8.161855e-001	6.871485e-002
5.787979109368341e-006	1.000000e+000	8.918126e-001	8.894197e-001	8.141391e-002
6.276260359368341e-006	1.000000e+000	9.644511e-001	9.620774e-001	9.508535e-002
7.008682234368342e-006	1.000000e+000	1.072222e+000	1.069880e+000	1.173601e-001
7.741104109368342e-006	1.000000e+000	1.178428e+000	1.176121e+000	1.416782e-001
8.473525984368343e-006	1.000000e+000	1.282916e+000	1.280647e+000	1.679508e-001
9.380334020082630e-006	1.000000e+000	1.410332e+000	1.408115e+000	2.035061e-001
1.028714205579692e-005	1.000000e+000	1.533928e+000	1.531768e+000	2.412915e-001
1.119395009151120e-005	1.000000e+000	1.653706e+000	1.651607e+000	2.813071e-001
1.210075812722549e-005	1.000000e+000	1.769664e+000	1.767632e+000	3.235528e-001
1.300756616293978e-005	1.000000e+000	1.881803e+000	1.879842e+000	3.680287e-001
1.391437419865406e-005	1.000000e+000	1.990124e+000	1.988237e+000	4.147347e-001
1.482118223436835e-005	1.000000e+000	2.094625e+000	2.092818e+000	4.636708e-001
1.607676259151121e-005	1.000000e+000	2.231834e+000	2.230146e+000	5.346229e-001
1.733234294865407e-005	1.000000e+000	2.358260e+000	2.356696e+000	6.068340e-001
1.858792330579692e-005	1.000000e+000	2.473903e+000	2.472468e+000	6.803043e-001
1.984350366293979e-005	1.000000e+000	2.578762e+000	2.577463e+000	7.550337e-001
2.109908402008264e-005	1.000000e+000	2.672837e+000	2.671680e+000	8.310221e-001
2.235466437722550e-005	1.000000e+000	2.756129e+000	2.755119e+000	9.082697e-001
2.361024473436836e-005	1.000000e+000	2.828638e+000	2.827780e+000	9.867764e-001
2.500000100000000e-005	1.000000e+000	2.893672e+000	2.892987e+000	1.071700e+000
2.500000110000000e-005	9.000000e-001	2.893672e+000	2.892987e+000	1.071700e+000
2.500000130000000e-005	7.000000e-001	2.893672e+000	2.892983e+000	1.071700e+000
2.500000170000000e-005	3.000000e-001	2.893672e+000	2.892959e+000	1.071700e+000
2.500000200000000e-005	0.000000e+000	2.893672e+000	2.892929e+000	1.071700e+000
2.500000208000000e-005	0.000000e+000	2.893672e+000	2.892920e+000	1.071700e+000
2.500000224000000e-005	0.000000e+000	2.893672e+000	2.892902e+000	1.071700e+000
2.500000256000000e-005	0.000000e+000	2.893672e+000	2.892865e+000	1.071700e+000
2.500000320000000e-005	0.000000e+000	2.893672e+000	2.892792e+000	1.071700e+000
2.500000448000000e-005	0.000000e+000	2.893672e+000	2.892646e+000	1.071700e+000
2.500000704000000e-005	0.000000e+000	2.893672e+000	2.892353e+000	1.071700e+000
2.500001215999999e-005	0.000000e+000	2.893673e+000	2.891768e+000	1.071700e+000
2.500002239999999e-005	0.000000e+000	2.893673e+000	2.890597e+000	1.071700e+000
2.500004287999997e-005	0.000000e+000	2.893674e+000	2.888260e+000	1.071700e+000
2.500008383999995e-005	0.000000e+000	2.893676e+000	2.883597e+000	1.071700e+000
2.500016575999990e-005	0.000000e+000	2.893679e+000	2.874315e+000	1.071700e+000
2.500032959999980e-005	0.000000e+000	2.893686e+000	2.855929e+000	1.071700e+000
2.500131263999920e-005	0.000000e+000	2.893726e+000	2.750385e+000	1.071701e+000
2.500262335999841e-005	0.000000e+000	2.893780e+000	2.621408e+000	1.071701e+000
2.500524479999681e-005	0.000000e+000	2.893889e+000	2.397998e+000	1.071701e+000
2.501048767999363e-005	0.000000e+000	2.894105e+000	2.039623e+000	1.071701e+000
2.501627976254125e-005	0.000000e+000	2.894343e+000	1.750731e+000	1.071701e+000
2.502415618553693e-005	0.000000e+000	2.894667e+000	1.492573e+000	1.071701e+000
2.503309976524152e-005	0.000000e+000	2.895034e+000	1.312746e+000	1.071701e+000
2.504298866540987e-005	0.000000e+000	2.895439e+000	1.201539e+000	1.071701e+000
2.505405831713617e-005	0.000000e+000	2.895892e+000	1.137220e+000	1.071702e+000
2.506744197399065e-005	0.000000e+000	2.896438e+000	1.100918e+000	1.071702e+000
2.508401181165753e-005	0.000000e+000	2.897112e+000	1.082793e+000	1.071702e+000
2.510586629747308e-005	0.000000e+000	2.897997e+000	1.075179e+000	1.071703e+000
2.513610602268601e-005	0.000000e+000	2.899215e+000	1.072837e+000	1.071704e+000
2.526788589166594e-005	0.000000e+000	2.904420e+000	1.072419e+000	1.071707e+000
2.769864395352854e-005	0.000000e+000	2.974028e+000	1.072503e+000	1.071769e+000
3.012940201539114e-005	0.000000e+000	2.997193e+000	1.072572e+000	1.071830e+000
3.256016007725374e-005	0.000000e+000	2.973916e+000	1.072624e+000	1.071889e+000
3.499091813911635e-005	0.000000e+000	2.904195e+000	1.072660e+000	1.071947e+000
3.742167620097895e-005	0.000000e+000	2.788033e+000	1.072681e+000	1.072002e+000
3.985243426284155e-005	0.000000e+000	2.625427e+000	1.072685e+000	1.072056e+000
4.228319232470414e-005	0.000000e+000	2.416379e+000	1.072674e+000	1.072108e+000
4.332950928898986e-005	0.000000e+000	2.314950e+000	1.072663e+000	1.072128e+000
4.437582625327558e-005	0.000000e+000	2.207485e+000	1.072648e+000	1.072147e+000
4.542214321756129e-005	0.000000e+000	2.093985e+000	1.072631e+000	1.072164e+000
4.646846018184700e-005	0.000000e+000	1.974449e+000	1.072610e+000	1.072180e+000
4.751477714613272e-005	0.000000e+000	1.848878e+000	1.072585e+000	1.072194e+000
4.856109411041844e-005	0.000000e+000	1.717271e+000	1.072558e+000	1.072207e+000
4.960741107470415e-005	0.000000e+000	1.579629e+000	1.072527e+000	1.072219e+000
4.975586037500001e-005	0.000000e+000	1.559876e+000	1.072522e+000	1.072221e+000
4.975586637500002e-005	0.000000e+000	1.559876e+000	1.072522e+000	1.072221e+000
4.975589037500009e-005	0.000000e+000	1.559872e+000	1.072522e+000	1.072221e+000
4.975592237500018e-005	0.000000e+000	1.559868e+000	1.072522e+000	1.072221e+000
4.982139437518222e-005	0.000000e+000	1.551107e+000	1.072520e+000	1.072222e+000
4.988693037536444e-005	0.000000e+000	1.542324e+000	1.072518e+000	1.072222e+000
4.988693137536444e-005	0.000000e+000	1.542324e+000	1.072518e+000	1.072222e+000
4.988693337536445e-005	0.000000e+000	1.542324e+000	1.072518e+000	1.072222e+000
4.988693737536446e-005	0.000000e+000	1.542323e+000	1.072518e+000	1.072222e+000
4.988694537536448e-005	0.000000e+000	1.542322e+000	1.072518e+000	1.072222e+000
4.988696137536453e-005	0.000000e+000	1.542320e+000	1.072518e+000	1.072222e+000
4.989631908967626e-005	0.000000e+000	1.541064e+000	1.072518e+000	1.072222e+000
4.990567680398799e-005	0.000000e+000	1.539807e+000	1.072517e+000	1.072223e+000
4.991503451829972e-005	0.000000e+000	1.538551e+000	1.072517e+000	1.072223e+000
4.992439223261146e-005	0.000000e+000	1.537294e+000	1.072517e+000	1.072223e+000
4.993374994692319e-005	0.000000e+000	1.536036e+000	1.072517e+000	1.072223e+000
4.994310766123493e-005	0.000000e+000	1.534779e+000	1.072516e+000	1.072223e+000
4.995246537554666e-005	0.000000e+000	1.533521e+000	1.072516e+000	1.072223e+000
4.995246837554667e-005	0.000000e+000	1.533520e+000	1.072516e+000	1.072223e+000
4.995247237554668e-005	0.000000e+000	1.533520e+000	1.072516e+000	1.072223e+000
4.995248037554670e-005	0.000000e+000	1.533519e+000	1.072516e+000	1.072223e+000
4.995249637554674e-005	0.000000e+000	1.533517e+000	1.072516e+000	1.072223e+000
4.995717294698832e-005	0.000000e+000	1.532888e+000	1.072516e+000	1.072223e+000
4.996184951842989e-005	0.000000e+000	1.532259e+000	1.072516e+000	1.072223e+000
4.996652608987146e-005	0.000000e+000	1.531630e+000	1.072515e+000	1.072223e+000
4.997120266131304e-005	0.000000e+000	1.531000e+000	1.072515e+000	1.072223e+000
4.997587923275462e-005	0.000000e+000	1.530371e+000	1.072515e+000	1.072223e+000
4.998055580419619e-005	0.000000e+000	1.529742e+000	1.072515e+000	1.072223e+000
4.998523237563777e-005	0.000000e+000	1.529112e+000	1.072515e+000	1.072223e+000
4.998523337563777e-005	0.000000e+000	1.529112e+000	1.072515e+000	1.072223e+000
4.998523537563777e-005	0.000000e+000	1.529112e+000	1.072515e+000	1.072223e+000
4.998523937563778e-005	0.000000e+000	1.529112e+000	1.072515e+000	1.072223e+000
4.998524737563781e-005	0.000000e+000	1.529110e+000	1.072515e+000	1.072223e+000
4.998526337563785e-005	0.000000e+000	1.529108e+000	1.072515e+000	1.072223e+000
4.999342437566054e-005	0.000000e+000	1.528010e+000	1.072515e+000	1.072223e+000
4.999343037566056e-005	0.000000e+000	1.528009e+000	1.072515e+000	1.072223e+000
4.999343837566058e-005	0.000000e+000	1.528008e+000	1.072515e+000	1.072223e+000
4.999345437566063e-005	0.000000e+000	1.528006e+000	1.072515e+000	1.072223e+000
4.999367837566125e-005	0.000000e+000	1.527975e+000	1.072515e+000	1.072223e+000
4.999547037566623e-005	0.000000e+000	1.527734e+000	1.072515e+000	1.072223e+000
4.999751937567193e-005	0.000000e+000	1.527458e+000	1.072515e+000	1.072223e+000
4.999752537567195e-005	0.000000e+000	1.527457e+000	1.072515e+000	1.072223e+000
4.999758137567210e-005	0.000000e+000	1.527450e+000	1.072515e+000	1.072223e+000
4.999913075135523e-005	0.000000e+000	1.527241e+000	1.072514e+000	1.072224e+000
4.999944025407139e-005	0.000000e+000	1.527200e+000	1.072514e+000	1.072224e+000
4.999944125407139e-005	0.000000e+000	1.527200e+000	1.072514e+000	1.072224e+000
4.999944325407139e-005	0.000000e+000	1.527199e+000	1.072514e+000	1.072224e+000
4.999944725407141e-005	0.000000e+000	1.527199e+000	1.072514e+000	1.072224e+000
4.999945525407143e-005	0.000000e+000	1.527198e+000	1.072514e+000	1.072224e+000
4.999949650348970e-005	0.000000e+000	1.527192e+000	1.072514e+000	1.072224e+000
4.999953775290796e-005	0.000000e+000	1.527186e+000	1.072514e+000	1.072224e+000
4.999957900232623e-005	0.000000e+000	1.527181e+000	1.072514e+000	1.072224e+000
4.999962025174449e-005	0.000000e+000	1.527175e+000	1.072514e+000	1.072224e+000
4.999966150116276e-005	0.000000e+000	1.527170e+000	1.072514e+000	1.072224e+000
4.999970275058102e-005	0.000000e+000	1.527164e+000	1.072514e+000	1.072224e+000
4.999974399999929e-005	0.000000e+000	1.527159e+000	1.072514e+000	1.072224e+000
4.999984149185368e-005	0.000000e+000	1.527146e+000	1.072514e+000	1.072224e+000
4.999984449185369e-005	0.000000e+000	1.527145e+000	1.072514e+000	1.072224e+000
4.999984849185370e-005	0.000000e+000	1.527145e+000	1.072514e+000	1.072224e+000
4.999985649185373e-005	0.000000e+000	1.527144e+000	1.072514e+000	1.072224e+000
4.999987249185377e-005	0.000000e+000	1.527141e+000	1.072514e+000	1.072224e+000
4.999993599999982e-005	0.000000e+000	1.527133e+000	1.072514e+000	1.072224e+000
4.999994195112457e-005	0.000000e+000	1.527132e+000	1.072514e+000	1.072224e+000
4.999994988595756e-005	0.000000e+000	1.527131e+000	1.072514e+000	1.072224e+000
4.999996826066803e-005	0.000000e+000	1.527129e+000	1.072514e+000	1.072224e+000
4.999997327075698e-005	0.000000e+000	1.527128e+000	1.072514e+000	1.072224e+000
4.999998429093490e-005	0.000000e+000	1.527126e+000	1.072514e+000	1.072224e+000
4.999998629093490e-005	0.000000e+000	1.527126e+000	1.072514e+000	1.072224e+000
4.999999029093491e-005	0.000000e+000	1.527126e+000	1.072514e+000	1.072224e+000
4.999999199999998e-005	0.000000e+000	1.527125e+000	1.072514e+000	1.072224e+000
4.999999641813012e-005	0.000000e+000	1.527125e+000	1.072514e+000	1.072224e+000
4.999999800000000e-005	0.000000e+000	1.527125e+000	1.072514e+000	1.072224e+000
4.999999900000000e-005	0.000000e+000	1.527124e+000	1.072514e+000	1.072224e+000
5.000000000000000e-005	0.000000e+000	1.527124e+000	1.072514e+000	1.072224e+000
5.000000010000000e-005	1.000000e-001	1.527124e+000	1.072514e+000	1.072224e+000
5.000000030000000e-005	3.000000e-001	1.527124e+000	1.072516e+000	1.072224e+000
5.000000070000000e-005	7.000000e-001	1.527124e+000	1.072529e+000	1.072224e+000
5.000000100000001e-005	1.000000e+000	1.527124e+000	1.072545e+000	1.072224e+000
5.000000108000000e-005	1.000000e+000	1.527124e+000	1.072550e+000	1.072224e+000
5.000000124000000e-005	1.000000e+000	1.527124e+000	1.072560e+000	1.072224e+000
5.000000156000000e-005	1.000000e+000	1.527124e+000	1.072581e+000	1.072224e+000
5.000000220000000e-005	1.000000e+000	1.527124e+000	1.072621e+000	1.072224e+000
5.000000348000001e-005	1.000000e+000	1.527124e+000	1.072701e+000	1.072224e+000
5.000000604000002e-005	1.000000e+000	1.527123e+000	1.072862e+000	1.072224e+000
5.000131164000365e-005	1.000000e+000	1.526948e+000	1.150845e+000	1.072267e+000
5.000262236000729e-005	1.000000e+000	1.526771e+000	1.221618e+000	1.072311e+000
5.000524380001458e-005	1.000000e+000	1.526418e+000	1.343707e+000	1.072398e+000
5.001048668002916e-005	1.000000e+000	1.525712e+000	1.524231e+000	1.072568e+000
5.002097244005831e-005	1.000000e+000	1.524299e+000	1.730052e+000	1.072884e+000
5.003210831564632e-005	1.000000e+000	1.522798e+000	1.789417e+000	1.073171e+000
5.004346294249316e-005	1.000000e+000	1.521267e+000	1.731541e+000	1.073399e+000
5.005596455451065e-005	1.000000e+000	1.519581e+000	1.621832e+000	1.073591e+000
5.006910656486191e-005	1.000000e+000	1.517808e+000	1.527679e+000	1.073758e+000
5.008481382659531e-005	1.000000e+000	1.515688e+000	1.476592e+000	1.073953e+000
5.010280565713994e-005	1.000000e+000	1.513258e+000	1.477364e+000	1.074195e+000
5.012167488245654e-005	1.000000e+000	1.510708e+000	1.500305e+000	1.074469e+000
5.014604206687790e-005	1.000000e+000	1.507413e+000	1.516170e+000	1.074831e+000
5.017498981560540e-005	1.000000e+000	1.503495e+000	1.511524e+000	1.075251e+000
5.021152702388063e-005	1.000000e+000	1.498545e+000	1.499810e+000	1.075768e+000
5.025702507007072e-005	1.000000e+000	1.492372e+000	1.493073e+000	1.076399e+000
5.064945952628151e-005	1.000000e+000	1.438723e+000	1.440128e+000	1.081422e+000
5.104189398249230e-005	1.000000e+000	1.384535e+000	1.386485e+000	1.085691e+000
5.143432843870310e-005	1.000000e+000	1.329806e+000	1.332143e+000	1.089207e+000
5.182676289491390e-005	1.000000e+000	1.274537e+000	1.277104e+000	1.091970e+000
5.221919735112469e-005	1.000000e+000	1.218728e+000	1.221366e+000	1.093981e+000
5.261163180733548e-005	1.000000e+000	1.162379e+000	1.164930e+000	1.095239e+000
5.300406626354628e-005	1.000000e+000	1.105490e+000	1.107795e+000	1.095743e+000
5.349234751354628e-005	1.000000e+000	1.034126e+000	1.036458e+000	1.095324e+000
5.429452385283199e-005	1.000000e+000	9.149170e-001	9.172849e-001	1.092020e+000
5.509670019211771e-005	1.000000e+000	7.946387e-001	7.970385e-001	1.085764e+000
5.589887653140342e-005	1.000000e+000	6.732911e-001	6.757183e-001	1.076556e+000
5.670105287068913e-005	1.000000e+000	5.508744e-001	5.533243e-001	1.064396e+000
5.750322920997485e-005	1.000000e+000	4.273884e-001	4.298566e-001	1.049284e+000
5.830540554926057e-005	1.000000e+000	3.028332e-001	3.053150e-001	1.031220e+000
5.910758188854628e-005	1.000000e+000	1.772087e-001	1.796996e-001	1.010204e+000
5.949123144211771e-005	1.000000e+000	1.172019e-001	1.196957e-001	9.992189e-001
5.987488099568914e-005	1.000000e+000	5.720830e-002	5.970396e-002	9.876299e-001
6.025853054926056e-005	1.000000e+000	-2.772235e-003	-2.756569e-004	9.754375e-001
6.064218010283199e-005	1.000000e+000	-6.273966e-002	-6.024314e-002	9.626417e-001
6.102582965640342e-005	1.000000e+000	-1.226940e-001	-1.201985e-001	9.492425e-001
6.140947920997485e-005	1.000000e+000	-1.826352e-001	-1.801417e-001	9.352398e-001
6.179312876354628e-005	1.000000e+000	-2.425633e-001	-2.400728e-001	9.206337e-001
6.276969126354628e-005	1.000000e+000	-3.954221e-001	-3.929439e-001	8.805196e-001
6.374625376354628e-005	1.000000e+000	-5.462927e-001	-5.438332e-001	8.372333e-001
6.472281626354628e-005	1.000000e+000	-6.951751e-001	-6.927405e-001	7.907747e-001
6.569937876354628e-005	1.000000e+000	-8.420694e-001	-8.396659e-001	7.411440e-001
6.667594126354628e-005	1.000000e+000	-9.869754e-001	-9.846093e-001	6.883410e-001
6.765250376354628e-005	1.000000e+000	-1.129893e+000	-1.127571e+000	6.323659e-001
6.862906626354628e-005	1.000000e+000	-1.270823e+000	-1.268550e+000	5.732186e-001
6.953919979732539e-005	1.000000e+000	-1.398979e+000	-1.396759e+000	5.157768e-001
7.044933333110449e-005	1.000000e+000	-1.523318e+000	-1.521154e+000	4.566874e-001
7.135946686488359e-005	1.000000e+000	-1.643838e+000	-1.641735e+000	3.959504e-001
7.226960039866269e-005	1.000000e+000	-1.760540e+000	-1.758504e+000	3.335657e-001
7.317973393244180e-005	1.000000e+000	-1.873425e+000	-1.871458e+000	2.695334e-001
7.408986746622090e-005	1.000000e+000	-1.982491e+000	-1.980599e+000	2.038536e-001
7.500000100000000e-005	1.000000e+000	-2.087739e+000	-2.085927e+000	1.365260e-001
7.500000110000001e-005	9.000000e-001	-2.087739e+000	-2.085927e+000	1.365260e-001
7.500000130000000e-005	7.000000e-001	-2.087739e+000	-2.085922e+000	1.365260e-001
7.500000170000000e-005	3.000000e-001	-2.087739e+000	-2.085893e+000	1.365260e-001
7.500000200000000e-005	3.995803e-009	-2.087739e+000	-2.085857e+000	1.365260e-001
7.500000208000000e-005	1.331934e-009	-2.087739e+000	-2.085845e+000	1.365260e-001
7.500000224000000e-005	0.000000e+000	-2.087739e+000	-2.085823e+000	1.365260e-001
7.500000255999999e-005	0.000000e+000	-2.087739e+000	-2.085778e+000	1.365260e-001
7.500000319999999e-005	0.000000e+000	-2.087739e+000	-2.085689e+000	1.365260e-001
7.500000447999998e-005	0.000000e+000	-2.087739e+000	-2.085510e+000	1.365260e-001
7.500000703999998e-005	0.000000e+000	-2.087739e+000	-2.085153e+000	1.365260e-001
